10 03:46:11.644 G  RX 01 03 00 00 00 10 44 06 
10 03:46:11.713 G  TX 01 03 20 00 00 00 00 40 80 00 00 C2 B8 00 00 00 00 00 00 00 00 00 00 C1 00 00 00 C3 10 00 00 00 00 00 00 C7 05 
10 03:46:11.850 G  RX 01 10 00 24 00 4A 94 00 00 00 00 00 00 00 00 44 F9 8B 6C 44 F8 CC 2D 45 00 1A 2E 44 FA 11 B3 46 90 8F E6 46 8F 13 CF 42 BE 5D 35 42 B4 A7 18 46 71 6F 12 42 EF 23 40 42 F4 44 B7 42 E9 07 0E 42 EA C9 9B 42 F2 10 BA 41 14 4E D6 43 B3 BF 12 BC 27 57 A0 41 E8 00 00 42 00 00 00 00 00 00 00 3C 8B 67 92 3E 97 90 5C 41 37 AB 2E 41 42 B0 2A 41 40 F1 AE 41 44 B2 37 47 8A E8 00 43 57 00 00 00 00 00 00 47 0F D1 DA 42 BA 30 09 00 00 00 00 00 00 00 00 45 CD DA 1A 45 CE 31 FE B8 93 
10 03:46:11.919 G  TX 01 10 00 24 00 4A 01 F5 
10 03:46:12.036 G  RX 01 10 00 6E 00 46 8C 00 00 00 00 3F 70 0D 36 3F 77 7F 0C 3F 72 69 CA 3F 75 AD F0 00 00 00 00 43 3A 14 A2 43 33 29 C5 43 3C D3 C4 43 36 4A 91 00 00 00 00 45 CE 30 29 45 CF A7 88 45 CE EE 98 45 CE 9C 32 44 85 AE EF 40 B4 6C 34 3D 77 66 4D 3D A0 DB B3 3E 02 C8 5B 3E 1B 13 21 42 FD B3 48 42 43 67 8D 41 97 54 2D 42 69 23 34 3C C2 4F 0D 42 20 17 A5 3D D8 26 2D 3E 96 64 96 45 90 B8 00 45 5B 10 00 41 93 2B 0E 41 93 C7 4E 00 00 00 00 00 00 00 00 FF 4A 
10 03:46:12.106 G  TX 01 10 00 6E 00 46 20 26 
10 03:46:12.644 G  RX 01 03 00 00 00 10 44 06 
10 03:46:12.713 G  TX 01 03 20 00 00 00 00 40 80 00 00 C2 B8 00 00 00 00 00 00 00 00 00 00 C1 00 00 00 C3 10 00 00 00 00 00 00 C7 05 
10 03:46:12.850 G  RX 01 10 00 24 00 4A 94 00 00 00 00 00 00 00 00 44 F9 66 CD 44 F8 EC BA 45 00 32 98 44 F7 9A FF 46 90 8F E6 46 8F 13 CF 42 BE CD 1B 42 B6 2A E6 46 71 71 45 42 F0 11 FC 42 F3 FB B7 42 E9 71 0E 42 E9 8B 8E 42 F2 1D FF 41 15 1F E8 43 B3 3D A4 BC 27 87 2E 41 E8 00 00 42 00 00 00 00 00 00 00 3C 8B 67 92 3E 98 59 19 41 37 8F BC 41 42 E4 92 41 40 F4 3C 41 44 C1 51 47 8A E8 80 43 56 66 66 00 00 00 00 47 0F D1 DA 42 BD CA 23 00 00 00 00 00 00 00 00 45 CD FC E4 45 CE 40 A4 B6 2C 
10 03:46:12.920 G  TX 01 10 00 24 00 4A 01 F5 
10 03:46:13.035 G  RX 01 10 00 6E 00 46 8C 00 00 00 00 3F 70 40 BB 3F 77 4D 75 3F 72 4C EE 3F 75 54 6D 00 00 00 00 43 3A 1E 66 43 33 20 01 43 3C CD 42 43 36 3A 4A 00 00 00 00 45 CE 35 A8 45 CF 95 39 45 CE F4 16 45 CE 98 88 44 86 46 4E 40 AE 90 2F 3D BA 33 65 3D 9E 8D 75 3E 04 20 49 3E 1A DD 29 42 FD AC C5 42 40 74 54 41 92 1E D2 42 67 97 5D 3C BC B3 FA 42 20 1C 9C 3E 44 9E 1A 3E 89 5F 34 45 90 B8 00 45 5B 10 00 41 94 FF D0 41 95 72 65 00 00 00 00 00 00 00 00 8A 5F 
10 03:46:13.104 G  TX 01 10 00 6E 00 46 20 26 
10 03:46:13.644 G  RX 01 03 00 00 00 10 44 06 
10 03:46:13.713 G  TX 01 03 20 00 00 00 00 40 80 00 00 C2 B8 00 00 00 00 00 00 00 00 00 00 C1 00 00 00 C3 10 00 00 00 00 00 00 C7 05 
10 03:46:13.848 G  RX 01 10 00 24 00 4A 94 00 00 00 00 00 00 00 00 44 F9 56 86 44 F9 1D 8E 45 00 12 0B 44 F6 45 31 46 90 8F E6 46 8F 13 CF 42 BE EE 04 42 B3 4A CE 46 71 73 79 42 F2 24 A1 42 F4 65 E5 42 E8 DF 4E 42 E9 E1 B0 42 F2 17 5C 41 13 80 79 43 B3 BD 94 BD 06 32 ED 41 E8 00 00 42 00 00 00 00 00 00 00 3C 8B 67 92 3E 3E 36 AA 41 37 AA EC 41 42 F0 BC 41 40 CE 8C 41 44 7F A3 47 8A E9 00 43 54 33 33 00 00 00 00 47 0F D1 DA 42 BB 49 30 00 00 00 00 00 00 00 00 45 CD EA 94 45 CE 27 01 EF 42 
10 03:46:13.917 G  TX 01 10 00 24 00 4A 01 F5 
10 03:46:14.032 G  RX 01 10 00 6E 00 46 8C 00 00 00 00 3F 74 70 C6 3F 76 E8 FF 3F 72 33 DE 3F 75 3E 24 00 00 00 00 43 36 D6 8B 43 33 54 17 43 3C D3 C4 43 36 51 13 00 00 00 00 45 CE 31 FE 45 CF B0 B0 45 CE FF 13 45 CE A9 03 44 86 0B B6 40 A7 BA 28 3D 77 66 4D 3D 9B 7C DF 3E 04 69 92 3E 1B 4E 78 42 FD 0A 02 42 42 70 26 41 93 E9 29 42 6A 1D 35 3C BA A3 98 42 20 1A 2A 3E 15 BD EB 3E 89 5F 34 45 90 B8 00 45 5B 10 00 41 96 57 91 41 97 1D 7C 00 00 00 00 00 00 00 00 93 06 
10 03:46:14.101 G  TX 01 10 00 6E 00 46 20 26 
10 03:46:14.639 G  RX 01 03 00 00 00 10 44 06 
10 03:46:14.708 G  TX 01 03 20 00 00 00 00 40 80 00 00 C2 B8 00 00 00 00 00 00 00 00 00 00 C1 00 00 00 C3 10 00 00 00 00 00 00 C7 05 
10 03:46:14.845 G  RX 01 10 00 24 00 4A 94 00 00 00 00 00 00 00 00 44 F9 5A 98 44 F9 11 59 45 00 0B F1 44 F5 EB AC 46 90 8F E6 46 8F 13 CF 42 BD E6 BD 42 B3 A6 CD 46 71 75 AC 42 EF 37 25 42 F4 AE E6 42 E8 2C 73 42 EA 52 54 42 F2 3F 2A 41 13 83 90 43 B3 BB C0 BD 45 40 F6 41 E8 00 00 42 00 00 00 00 00 00 00 3C 8B 67 92 3E 73 88 BF 41 37 9F EF 41 42 E3 D6 41 40 CA 52 41 44 80 3F 47 8A E9 80 43 52 66 66 00 00 00 00 47 0F D1 DA 42 BD 54 65 00 00 00 00 00 00 00 00 45 CD BC CE 45 CE 2C 80 CC 5E 
10 03:46:14.914 G  TX 01 10 00 24 00 4A 01 F5 
10 03:46:15.031 G  RX 01 10 00 6E 00 46 8C 00 00 00 00 3F 70 20 CE 3F 76 F9 8C 3F 72 3E ED 3F 72 DE 9B 00 00 00 00 43 3A 14 A2 43 33 61 1C 43 3C FA D5 43 36 3A 4A 00 00 00 00 45 CE 30 29 45 CF AE DB 45 CE F2 42 45 CE B9 7E 44 85 E3 AB 40 9A 0E 1A 3D 58 26 2D 3D 9D 63 D9 3E 04 E5 96 3E 1C 4E 7E 42 FE 1B 73 42 42 49 16 41 95 60 2B 42 69 4C DF 3C B7 19 20 42 20 16 42 3E 0B 53 36 3E 69 13 94 45 90 B8 00 45 5B 10 00 41 94 EA FA 41 94 F5 65 00 00 00 00 00 00 00 00 71 E9 
10 03:46:15.098 G  TX 01 10 00 6E 00 46 20 26 
10 03:46:15.641 G  RX 01 03 00 00 00 10 44 06 
10 03:46:15.709 G  TX 01 03 20 00 00 00 00 40 80 00 00 C2 B8 00 00 00 00 00 00 00 00 00 00 C1 00 00 00 C3 10 00 00 00 00 00 00 C7 05 
10 03:46:15.846 G  RX 01 10 00 24 00 4A 94 00 00 00 00 00 00 00 00 44 F9 52 74 44 F8 EC BA 45 00 09 E8 44 F5 EB AC 46 90 8F E6 46 8F 13 CF 42 BE 49 77 42 B4 65 60 46 71 77 DF 42 F0 5A F0 42 F4 08 FD 42 E8 54 31 42 EA 66 35 42 F2 0A 18 41 16 CF E0 3E ED 5F 55 BD 45 3B C6 41 E8 00 00 42 00 00 00 00 00 00 00 3C 98 7A 97 3E B0 A7 EE 41 37 A0 78 41 42 E3 76 41 41 02 4C 41 44 57 80 47 8A EA 00 43 4F 00 00 00 00 00 00 47 0F D1 DA 42 BC 1A 74 00 00 00 00 00 00 00 00 45 CD C0 77 45 CE 25 2D B8 B5 
10 03:46:15.914 G  TX 01 10 00 24 00 4A 01 F5 
10 03:46:16.031 G  RX 01 10 00 6E 00 46 8C 00 00 00 00 3F 6F FE DE 3F 77 3E D5 3F 72 0F 65 3F 71 AD 47 00 00 00 00 43 3A 2E AD 43 33 26 84 43 3C DD 89 43 36 3D 8B 00 00 00 00 45 CE 33 D3 45 CF A7 88 45 CF 06 66 45 CE 9C 32 44 86 AF C6 40 AB A2 2C 3D 80 E8 81 3D 9E C7 F5 3E 05 2D 7B 3E 1D EC 24 42 FE 2E FB 42 42 7D 2C 41 93 95 D4 42 6A 32 0A 3C B7 3D 78 42 20 1B 53 3D E2 90 E3 3E 8E 94 8F 45 90 B8 00 45 5B 10 00 41 98 A9 53 41 95 67 FB 00 00 00 00 00 00 00 00 8F B4 
10 03:46:16.101 G  TX 01 10 00 6E 00 46 20 26 
10 03:46:16.641 G  RX 01 03 00 00 00 10 44 06 
10 03:46:16.709 G  TX 01 03 20 00 00 00 00 40 80 00 00 C2 B8 00 00 00 00 00 00 00 00 00 00 C1 00 00 00 C3 10 00 00 00 00 00 00 C7 05 
10 03:46:16.846 G  RX 01 10 00 24 00 4A 94 00 00 00 00 00 00 00 00 44 F9 56 86 44 F9 01 13 45 00 22 52 44 F6 30 D9 46 90 8F E6 46 8F 13 CF 42 BE 49 77 42 B2 C7 65 46 71 7A 12 42 EE EE 34 42 F4 37 71 42 E8 BE 2F 42 EA 23 F2 42 F1 9F F4 41 1D 67 A5 3F B9 7D AA BD 54 E1 A7 41 E8 00 00 42 00 00 00 00 00 00 00 3C 8B 67 92 3E 6D 42 DA 41 37 CC 6C 41 42 ED E1 41 40 C7 5C 41 44 55 0D 47 8A EA 80 43 4C 33 33 00 00 00 00 47 0F D1 DA 42 BE 3F E4 00 00 00 00 00 00 00 00 45 CD E6 EB 45 CE 2A AB 1F 44 
10 03:46:16.915 G  TX 01 10 00 24 00 4A 01 F5 
10 03:46:17.030 G  RX 01 10 00 6E 00 46 8C 00 00 00 00 3F 6F F2 E7 3F 77 41 20 3F 72 3C EE 3F 71 51 2E 00 00 00 00 43 3A 35 2F 43 33 16 3D 43 3C C6 BF 43 36 3A 4A 00 00 00 00 45 CE 30 29 45 CF 8F BB 45 CE EE 98 45 CE A3 85 44 86 69 76 40 B8 54 38 3D A0 28 A0 3D A1 2A 73 3E 05 BA 8E 3E 1E DC F4 42 FE 2E FB 42 42 D8 52 41 98 24 83 42 69 76 89 3C BE 8F FE 42 20 2B 58 3D F7 66 4D 3E 6E 48 EE 45 90 B8 00 45 5B 10 00 41 95 B0 E6 41 95 3E 50 00 00 00 00 00 00 00 00 87 75 
10 03:46:17.100 G  TX 01 10 00 6E 00 46 20 26 
10 03:46:17.640 G  RX 01 03 00 00 00 10 44 06 
10 03:46:17.708 G  TX 01 03 20 00 00 00 00 40 80 00 00 C2 B8 00 00 00 00 00 00 00 00 00 00 C1 00 00 00 C3 10 00 00 00 00 00 00 C7 05 
10 03:46:17.817 B  RX 01 10 00 24 00 4A 94 00 00 00 00 00 00 00 00 44 F9 6A DE 44 F8 DC 73 44 FF DA D8 44 F9 93 8F 46 90 8F E6 46 8F 13 CF 42 BE 1B 64 42 B5 E2 97 46 71 7C 45 42 F0 AA 87 42 F4 8D B7 42 E9 42 AE 42 EA D6 DC 42 F2 10 BA 41 1F 0C 3F 3F B7 9F 03 BD 45 8F EF 41 E8 00 00 42 00 00 00 00 00 00 00 3C 8B 67 92 3E 83 F5 F3 41 37 AE 42 41 42 E0 33 41 
10 03:46:17.845 B  RX 40 DE 86 41 44 DB FF 47 8A EB 00 43 50 E6 66 00 00 00 00 47 0F D1 DA 42 BC 76 03 00 00 00 00 00 00 00 00 45 CD D2 C7 45 CE 2E 54 D9 A3 
10 03:46:18.690 G  RX 01 10 00 6E 00 46 8C 00 00 00 00 3F 70 14 14 3F 76 FD 0F 3F 76 37 EF 3F 70 D9 00 00 00 00 00 43 3A 17 E3 43 33 57 58 43 39 95 AD 43 36 74 E2 00 00 00 00 45 CE 37 7C 45 CF AD 07 45 CF 13 37 45 CE C8 24 44 86 52 06 40 AC 9C 2D 3D BF 68 BF 3D A0 5B 4D 3E 03 BD 30 3E 1E AE 59 42 FE 0E 6D 42 42 97 37 41 94 66 2A 42 69 4C DF 3C CA 59 12 42 20 3A 18 3D B8 E6 0E 3E 8B F9 E1 45 90 B8 00 45 5B 10 00 41 95 B0 E6 41 95 33 E5 00 00 00 00 00 00 00 00 03 89 
10 03:46:18.761 G  TX 01 10 00 6E 00 46 20 26 
10 03:46:18.789 G  RX 01 03 00 00 00 10 44 06 
10 03:46:18.858 G  TX 01 03 20 00 00 00 00 40 80 00 00 C2 B8 00 00 00 00 00 00 00 00 00 00 C1 00 00 00 C3 10 00 00 00 00 00 00 C7 05 
10 03:46:18.994 G  RX 01 10 00 24 00 4A 94 00 00 00 00 00 00 00 00 44 F9 66 CD 44 F8 F8 EF 45 00 09 E8 44 FA 2E 2F 46 90 8F E6 46 8F 13 CF 42 BE 70 F4 42 B1 EE 97 46 71 7E 79 42 F1 00 C1 42 F3 B9 5C 42 E8 F9 CE 42 E9 77 AE 42 F1 78 27 41 1A ED DB 3F B7 C9 97 BD 3B 15 89 41 E8 00 00 42 00 00 00 00 00 00 00 3C 8B 67 92 3E BE C5 2F 41 37 AA 98 41 42 C6 3A 41 40 EB 90 41 44 DC 33 47 8A EB 80 43 4F 99 9A 00 00 00 00 47 0F D1 DA 42 BB 69 E3 00 00 00 00 00 00 00 00 45 CD B1 D1 45 CE 14 B2 1A 5A 
10 03:46:19.064 G  TX 01 10 00 24 00 4A 01 F5 
10 03:46:19.181 G  RX 01 10 00 6E 00 46 8C 00 00 00 00 3F 6F FD D2 3F 77 45 58 3F 76 FA 80 3F 71 A4 14 00 00 00 00 43 3A 3E F3 43 33 4A 53 43 39 4A CE 43 36 37 09 00 00 00 00 45 CE 30 29 45 CF AE DB 45 CE EA EE 45 CE 9A 5D 44 86 A5 08 40 A3 D2 24 3D CF 08 CF 3D A0 71 72 3E 05 BE 76 3E 1C 5D 8C 42 FE 76 98 42 42 97 37 41 94 B9 7F 42 68 F9 89 3C D0 05 B3 42 20 47 F5 3E 10 88 91 3E 9B 99 F1 45 90 B8 00 45 5B 10 00 41 97 90 12 41 94 A2 0F 00 00 00 00 00 00 00 00 B8 86 
10 03:46:19.249 G  TX 01 10 00 6E 00 46 20 26 
10 03:46:19.790 G  RX 01 03 00 00 00 10 44 06 
10 03:46:19.859 G  TX 01 03 20 00 00 00 00 40 80 00 00 C2 B8 00 00 00 00 00 00 00 00 00 00 C1 00 00 00 C3 10 00 00 00 00 00 00 C7 05 
10 03:46:19.997 G  RX 01 10 00 24 00 4A 94 00 00 00 00 00 00 00 00 44 F9 4E 63 44 F9 09 36 44 FF EF 30 44 FA 2E 2F 46 90 8F E6 46 8F 13 CF 42 BE 3C 4D 42 B5 9A 48 46 71 80 AC 42 F0 04 B8 42 F4 65 E5 42 E8 B0 EF 42 EA 52 54 42 F1 B3 DA 41 15 FD 27 3F B6 DA A9 BD 3B 1F 71 41 E8 00 00 42 00 00 00 00 00 00 00 3C 8B 67 92 3E A1 C1 EF 41 37 92 8C 41 42 FA 66 41 40 F8 B9 41 44 D4 E7 47 8A EC 00 43 4C E6 66 00 00 00 00 47 0F D1 DA 42 BC 89 A2 00 00 00 00 00 00 00 00 45 CD C0 77 45 CE 1F AE 2C FF 
10 03:46:20.066 G  TX 01 10 00 24 00 4A 01 F5 
10 03:46:20.182 G  RX 01 10 00 6E 00 46 8C 00 00 00 00 3F 70 3D 59 3F 77 21 A5 3F 72 1A A6 3F 74 E7 95 00 00 00 00 43 3A 17 E3 43 33 2D 07 43 3C C3 7E 43 36 37 09 00 00 00 00 45 CE 21 83 45 CF A7 88 45 CE DE 1D 45 CE A7 2E 44 86 50 12 40 B1 7E 31 3D 6C FB 98 3D 9F C5 BB 3E 07 70 BF 3E 1C D9 1F 42 FE 2E FB 42 42 56 1C 41 96 D7 2C 42 68 BB 09 3C C2 DE 9A 42 20 5B 09 3E 54 3E 2A 3E 91 2F 3C 45 90 B8 00 45 5B 10 00 41 95 3E 50 41 96 B5 51 00 00 00 00 00 00 00 00 8A C8 
10 03:46:20.251 G  TX 01 10 00 6E 00 46 20 26 
10 03:46:20.792 G  RX 01 03 00 00 00 10 44 06 
10 03:46:20.860 G  TX 01 03 20 00 00 00 00 40 80 00 00 C2 B8 00 00 00 00 00 00 00 00 00 00 C1 00 00 00 C3 10 00 00 00 00 00 00 C7 05 
10 03:46:20.998 G  RX 01 10 00 24 00 4A 94 00 00 00 00 00 00 00 00 44 F9 83 48 44 F8 BB E6 45 00 0B F1 44 FA 63 15 46 90 8F E6 46 8F 13 CF 42 BE 56 A0 42 B5 44 D6 46 71 82 DF 42 F0 BE 6D 42 F4 23 88 42 E7 BB D8 42 EB 05 3F 42 F1 BA 7C 41 17 A2 15 40 1A C3 36 BD 19 88 C9 41 E8 00 00 42 00 00 00 00 00 00 00 3C 8B 67 92 3E 3E 36 AA 41 37 97 EA 41 42 E6 7B 41 40 B5 1F 41 44 AD 1E 47 8A EC 80 43 4C 00 00 00 00 00 00 47 0F D1 DA 42 BB D2 84 00 00 00 00 00 00 00 00 45 CD DB EE 45 CE 21 83 18 8A 
10 03:46:21.066 G  TX 01 10 00 24 00 4A 01 F5 
10 03:46:21.183 G  RX 01 10 00 6E 00 46 8C 00 00 00 00 3F 70 10 61 3F 77 30 B5 3F 72 13 F8 3F 75 74 67 00 00 00 00 43 3A 11 60 43 33 29 C5 43 3C F1 11 43 36 3A 4A 00 00 00 00 45 CE 3B 26 45 CF A2 0A 45 CE DF F2 45 CE AC AD 44 86 F8 0A 40 B6 60 36 3D 80 E8 81 3D A0 54 65 3E 0A 0C 40 3E 1C 29 E0 42 FD F4 63 42 41 92 CB 41 94 12 D4 42 69 B5 0A 3C BD 04 66 42 20 60 C4 3D D8 26 2D 3E 86 C4 87 45 90 B8 00 45 5B 10 00 41 94 44 4F 41 93 93 39 00 00 00 00 00 00 00 00 92 47 
10 03:46:21.251 G  TX 01 10 00 6E 00 46 20 26 
10 03:46:21.793 G  RX 01 03 00 00 00 10 44 06 
10 03:46:21.862 G  TX 01 03 20 00 00 00 00 40 80 00 00 C2 B8 00 00 00 00 00 00 00 00 00 00 C1 00 00 00 C3 0F 00 00 00 00 00 00 29 C4 
10 03:46:21.971 B  RX 01 10 00 24 00 4A 94 00 00 00 00 00 00 00 00 44 F9 62 BB 44 F9 19 7D 45 00 16 1D 44 FA 0D A2 46 90 8F E6 46 8F 13 CF 42 BE 8B 48 42 B6 B4 F3 46 71 85 01 42 F0 B1 29 42 F4 6C 88 42 E8 40 52 42 E9 9F 6F 42 F1 07 63 41 1A EE DD 40 1A 92 40 BD 1D 07 61 41 E8 00 00 42 00 00 00 00 00 00 00 3C 8B 67 92 3E 95 FE E3 41 37 9F 15 41 42 BF 6E 41 
10 03:46:21.998 B  RX 40 F3 F1 41 44 B0 6B 47 8A ED 00 43 4B 33 33 00 00 00 00 47 0F D1 DA 42 BD 75 1A 00 00 00 00 00 00 00 00 45 CD D2 C7 45 CE 2E 54 A4 49 
10 03:46:22.834 G  RX 01 10 00 6E 00 46 8C 00 00 00 00 3F 74 8D 6A 3F 77 1A 44 3F 72 38 36 3F 75 B3 30 00 00 00 00 43 36 C6 44 43 33 3A 0C 43 3C B9 BA 43 36 3A 4A 00 00 00 00 45 CE 28 D6 45 CF A2 0A 45 CF 00 E8 45 CE A3 85 44 87 1C 2D 40 A1 DE 22 3D BF 68 BF 3D 9E 4B 8C 3E 07 5E 2A 3E 1A 87 50 42 FE 2E FB 42 42 F2 5C 41 94 8F D5 42 68 CF DE 3C CD 4A 5B 42 20 5A 84 3E 06 1D DB 3E 6E 48 EE 45 90 B8 00 45 5B 10 00 41 93 4A 4E 41 95 E4 FB 00 00 00 00 00 00 00 00 DF 2D 
10 03:46:22.902 G  TX 01 10 00 6E 00 46 20 26 
10 03:46:22.934 G  RX 01 03 00 00 00 10 44 06 
10 03:46:23.000 G  TX 01 03 20 00 00 00 00 40 80 00 00 C2 B8 00 00 00 00 00 00 00 00 00 00 C1 00 00 00 C3 0F 00 00 00 00 00 00 29 C4 
10 03:46:23.139 G  RX 01 10 00 24 00 4A 94 00 00 00 00 00 00 00 00 44 F9 56 86 44 F8 F8 EF 45 00 05 D6 44 F6 65 BF 46 90 8F E6 46 8F 13 CF 42 BE 6A 5F 42 B4 CE 87 46 71 87 23 42 EE 41 CF 42 F3 CD 44 42 E8 CB 6F 42 EA 9B 38 42 F1 E2 4A 41 1C 95 C8 40 1A 08 17 BD 1E F3 C7 41 E8 00 00 42 00 00 00 00 00 00 00 3C 8B 67 92 3E A8 D0 90 41 37 BE 16 41 42 E5 48 41 41 0E F4 41 44 4E 71 47 8A ED 80 43 4E 66 66 00 00 00 00 47 0F D1 DA 42 BE E9 FD 00 00 00 00 00 00 00 00 45 CD BE A2 45 CE 16 87 2D 51 
10 03:46:23.209 G  TX 01 10 00 24 00 4A 01 F5 
10 03:46:23.324 G  RX 01 10 00 6E 00 46 8C 00 00 00 00 3F 74 8D 6A 3F 77 1A 44 3F 72 38 36 3F 75 B3 30 00 00 00 00 43 36 C6 44 43 33 3A 0C 43 3C B9 BA 43 36 3A 4A 00 00 00 00 45 CE 28 D6 45 CF A2 0A 45 CF 00 E8 45 CE A3 85 44 87 1C 2D 40 A1 DE 22 3D BF 68 BF 3D 9E 4B 8C 3E 07 5E 2A 3E 1A 87 50 42 FE 2E FB 42 42 F2 5C 41 94 8F D5 42 68 CF DE 3C CD 4A 5B 42 20 5A 84 3E 06 1D DB 3E 6E 48 EE 45 90 B8 00 45 5B 10 00 41 93 4A 4E 41 95 E4 FB 00 00 00 00 00 00 00 00 DF 2D 
10 03:46:23.392 G  TX 01 10 00 6E 00 46 20 26 
10 03:46:23.931 G  RX 01 03 00 00 00 10 44 06 
10 03:46:24.000 G  TX 01 03 20 00 00 00 00 40 80 00 00 C2 B8 00 00 00 00 00 00 00 00 00 00 C1 00 00 00 C3 0F 00 00 00 00 00 00 29 C4 
10 03:46:24.136 G  RX 01 10 00 24 00 4A 94 00 00 00 00 00 00 00 00 44 F9 52 74 44 F8 F8 EF 44 FF E7 0D 44 F6 04 16 46 90 8F E6 46 8F 13 CF 42 BD AB 82 42 B3 0F AB 46 71 89 45 42 F1 3C 73 42 F3 FB B7 42 E8 C4 CF 42 EA A1 D8 42 F2 03 75 41 1A 1E FC 40 19 74 25 BD 1F 17 21 41 E8 00 00 42 00 00 00 00 00 00 00 3C 8B 67 92 3E A1 C1 EF 41 37 A7 53 41 42 FA 91 41 40 D4 0C 41 44 0D 15 47 8A EE 00 43 4F 80 00 00 00 00 00 47 0F D1 DA 42 BE 1F 2E 00 00 00 00 00 00 00 00 45 CD D6 70 45 CE 30 29 D5 3A 
10 03:46:24.205 G  TX 01 10 00 24 00 4A 01 F5 
10 03:46:24.321 G  RX 01 10 00 6E 00 46 8C 00 00 00 00 3F 74 90 AC 3F 77 66 36 3F 72 50 11 3F 75 3A 27 00 00 00 00 43 36 BF C1 43 33 30 48 43 3C C3 7E 43 36 51 13 00 00 00 00 45 CE 23 58 45 CF A3 DF 45 CE F2 42 45 CE A9 03 44 86 98 56 40 AD 96 2E 3D A5 5D FB 3D A0 4F 81 3E 06 10 1C 3E 19 0F 19 42 FE 90 A3 42 41 AC D6 41 91 F5 27 42 69 B5 0A 3C CA D4 F3 42 20 4D 31 3E 25 5D FB 3E 5E A8 DF 45 90 B8 00 45 5B 10 00 41 96 2D E6 41 98 8A 13 00 00 00 00 00 00 00 00 EB 65 
10 03:46:24.390 G  TX 01 10 00 6E 00 46 20 26 
10 03:46:24.931 G  RX 01 03 00 00 00 10 44 06 
10 03:46:25.000 G  TX 01 03 20 00 00 00 00 40 80 00 00 C2 B8 00 00 00 00 00 00 00 00 00 00 C1 00 00 00 C3 0F 00 00 00 00 00 00 29 C4 
10 03:46:25.136 G  RX 01 10 00 24 00 4A 94 00 00 00 00 00 00 00 00 44 F9 35 F8 44 F9 01 13 45 00 18 26 44 F5 F3 D0 46 90 8F E6 46 8F 13 CF 42 BD E6 BD 42 B3 5E 85 46 71 8B 67 42 F0 C5 0F 42 F4 4B 5A 42 E8 75 50 42 EA D6 DC 42 F2 31 E6 41 18 78 0D 3F B3 15 1A BD 07 06 A2 41 E8 00 00 42 00 00 00 00 00 00 00 3C 8B 67 92 3E A5 AD 9E 41 37 A0 93 41 42 C7 43 41 40 BF 15 41 44 55 06 47 8A EE 80 43 51 E6 66 00 00 00 00 47 0F D1 DA 42 BC 20 FE 00 00 00 00 00 00 00 00 45 CD CF 1D 45 CE 30 29 7B 1F 
10 03:46:25.205 G  TX 01 10 00 24 00 4A 01 F5 
10 03:46:25.321 G  RX 01 10 00 6E 00 46 8C 00 00 00 00 3F 70 79 42 3F 77 66 75 3F 71 FA B0 3F 71 97 6B 00 00 00 00 43 39 C3 40 43 33 30 48 43 3C E4 0B 43 36 57 96 00 00 00 00 45 CE 3B 26 45 CF B8 03 45 CE FD 3E 45 CE AC AD 44 86 F1 34 40 BC 3C 3C 3D BA 33 65 3D A0 50 6B 3E 08 28 CF 3E 18 87 17 42 FD ED E0 42 43 E9 C3 41 95 36 80 42 69 B5 0A 3C C2 93 10 42 20 47 C0 3E 0B 53 36 3E 63 DE 39 45 90 B8 00 45 5B 10 00 41 93 BC E4 41 95 53 25 00 00 00 00 00 00 00 00 D2 F0 
10 03:46:25.391 G  TX 01 10 00 6E 00 46 20 26 
10 03:46:25.931 G  RX 01 03 00 00 00 10 44 06 
10 03:46:25.999 G  TX 01 03 20 00 00 00 00 40 80 00 00 C2 B8 00 00 00 00 00 00 00 00 00 00 C1 00 00 00 C3 0F 00 00 00 00 00 00 29 C4 
10 03:46:26.136 G  RX 01 10 00 24 00 4A 94 00 00 00 00 00 00 00 00 44 F9 4E 63 44 F9 35 F8 45 00 24 5B 44 F5 D3 42 46 90 8F E6 46 8F 13 CF 42 BE 2F 23 42 B3 85 F2 46 71 8D 89 42 F0 2C 83 42 F4 08 FD 42 E9 92 2F 42 EA 52 54 42 F2 38 88 41 16 D1 7A 3F B2 54 A2 BC B7 A3 9A 41 E8 00 00 42 00 00 00 00 00 00 00 3C 8B 67 92 3E A3 53 68 41 37 AF 45 41 42 CE 61 41 40 EF 62 41 44 A8 1D 47 8A EF 00 43 50 80 00 00 00 00 00 47 0F D1 DA 42 BD 75 1A 00 00 00 00 00 00 00 00 45 CD EE 3E 45 CE 1C 05 AA 82 
10 03:46:26.204 G  TX 01 10 00 24 00 4A 01 F5 
10 03:46:26.321 G  RX 01 10 00 6E 00 46 8C 00 00 00 00 3F 6F EE 88 3F 77 2F 2B 3F 72 3D 1E 3F 71 69 2B 00 00 00 00 43 3A 21 A7 43 33 29 C5 43 3C AF F6 43 36 37 09 00 00 00 00 45 CE 31 FE 45 CF 9C 8C 45 CE DF F2 45 CE A7 2E 44 86 D2 EE 40 A3 D2 24 3D 9A F3 46 3D 9F 10 75 3E 08 1D C9 3E 19 3C D5 42 FE 42 83 42 42 70 26 41 92 9B D3 42 67 97 5D 3C C8 B4 88 42 20 48 61 3E 2F C8 B0 3E 86 C4 87 45 90 B8 00 45 5B 10 00 41 93 E6 8F 41 97 5B FD 00 00 00 00 00 00 00 00 49 6B 
10 03:46:26.390 G  TX 01 10 00 6E 00 46 20 26 
10 03:46:26.931 G  RX 01 03 00 00 00 10 44 06 
10 03:46:27.000 G  TX 01 03 20 00 00 00 00 40 80 00 00 C2 B8 00 00 00 00 00 00 00 00 00 00 C1 00 00 00 C3 0F 00 00 00 00 00 00 29 C4 
10 03:46:27.137 G  RX 01 10 00 24 00 4A 94 00 00 00 00 00 00 00 00 44 F9 4E 63 44 F8 F0 CC 45 00 32 98 44 F6 14 5D 46 90 8F E6 46 8F 13 CF 42 BD 2E 78 42 B3 51 60 46 71 8F AC 42 F0 B7 CB 42 F4 44 B7 42 E9 28 2E 42 EA F1 5D 42 F2 4C 6F 41 17 A3 62 3F B1 A3 EE BC 76 C5 15 41 E8 00 00 42 00 00 00 00 00 00 00 3C 8B 67 92 3E 81 9B BD 41 37 8C FB 41 42 F7 EA 41 40 CF 39 41 44 AC 7F 47 8A EF 80 43 52 99 9A 00 00 00 00 47 0F D1 DA 42 BE 5A 0F 00 00 00 00 00 00 00 00 45 CD F1 E8 45 CE 21 83 CA F5 
10 03:46:27.205 G  TX 01 10 00 24 00 4A 01 F5 
10 03:46:27.321 G  RX 01 10 00 6E 00 46 8C 00 00 00 00 3F 6F AD F0 3F 77 4C D1 3F 71 ED 11 3F 71 56 F6 00 00 00 00 43 3A 62 C2 43 33 20 01 43 3D 01 57 43 36 40 CD 00 00 00 00 45 CE 35 A8 45 CF 9C 8C 45 CF 06 66 45 CE 9E 07 44 87 39 79 40 9B 08 1B 3D BF 68 BF 3D 9D C2 6C 3E 06 9C F6 3E 19 84 EB 42 FD E0 DB 42 43 81 98 41 92 48 7D 42 69 DE B5 3C CA FA 7B 42 20 3A 03 3E 44 9E 1A 3E 84 29 D9 45 90 B8 00 45 5B 10 00 41 96 DE FC 41 94 6D FA 00 00 00 00 00 00 00 00 E1 F8 
10 03:46:27.390 G  TX 01 10 00 6E 00 46 20 26 
10 03:46:27.929 G  RX 01 03 00 00 00 10 44 06 
10 03:46:27.999 G  TX 01 03 20 00 00 00 00 40 80 00 00 C2 B8 00 00 00 00 00 00 00 00 00 00 C1 00 00 00 C3 0F 00 00 00 00 00 00 29 C4 
10 03:46:28.134 G  RX 01 10 00 24 00 4A 94 00 00 00 00 00 00 00 00 44 F9 C0 52 44 F8 F4 DE 45 00 3A BC 44 F5 F7 E1 46 90 8F E6 46 8F 13 CF 42 BE 91 DD 42 B2 0F 70 46 71 91 CE 42 F0 2C 83 42 F3 EE 72 42 E8 AA 4F 42 EB D9 52 42 F1 D5 05 41 18 76 DB 3F B1 8D 62 BC 76 F2 C3 41 E8 00 00 42 00 00 00 00 00 00 00 3C 8B 67 92 3E 7C F1 96 41 37 90 7B 41 42 E0 12 41 40 CA E4 41 44 B0 00 47 8A F0 00 43 4F 33 33 00 00 00 00 47 0F D1 DA 42 BC 7C 8D 00 00 00 00 00 00 00 00 45 CD F1 E8 45 CE 28 D6 5D C2 
10 03:46:28.203 G  TX 01 10 00 24 00 4A 01 F5 
10 03:46:28.320 G  RX 01 10 00 6E 00 46 8C 00 00 00 00 3F 70 12 B4 3F 79 D7 2D 3F 72 25 9B 3F 71 01 51 00 00 00 00 43 3A 1B 24 43 31 4B 40 43 3C EA 8E 43 36 5E 19 00 00 00 00 45 CE 2E 54 45 CF AD 07 45 CF 02 BC 45 CE AA D8 44 86 AE CC 40 B2 78 32 3D 80 E8 81 3D 9C D8 82 3E 03 C2 D5 3E 1A D3 0B 42 FD 17 07 42 42 49 16 41 95 DD 2B 42 67 EA B3 3C C2 AF 2B 42 20 35 40 3E 2F C8 B0 3E 84 29 D9 45 90 B8 00 45 5B 10 00 41 95 29 7A 41 94 C1 4F 00 00 00 00 00 00 00 00 BA 0F 
10 03:46:28.388 G  TX 01 10 00 6E 00 46 20 26 
10 03:46:28.929 G  RX 01 03 00 00 00 10 44 06 
10 03:46:28.998 G  TX 01 03 20 00 00 00 00 40 80 00 00 C2 B8 00 00 00 00 00 00 00 00 00 00 C1 00 00 00 C3 0F 00 00 00 00 00 00 29 C4 
10 03:46:29.134 G  RX 01 10 00 24 00 4A 94 00 00 00 00 00 00 00 00 44 F9 4E 63 44 F8 F4 DE 45 00 16 1D 44 F8 1D 34 46 90 8F E6 46 8F 13 CF 42 BE 01 11 42 B4 30 CD 46 71 93 F0 42 F1 28 8D 42 F4 2A 2B 42 E8 B7 8F 42 EA AF 19 42 F1 8C 0D 41 17 A2 B2 3F B0 65 32 BB 87 E5 0B 41 E8 00 00 42 00 00 00 00 00 00 00 3C 8B 67 92 3E 82 64 79 41 37 BF C8 41 42 EA 45 41 40 F3 6E 41 44 98 63 47 8A F0 80 43 51 B3 33 00 00 00 00 47 0F D1 DA 42 BE 25 B9 00 00 00 00 00 00 00 00 45 CD CB 74 45 CE 1C 05 F8 98 
10 03:46:29.203 G  TX 01 10 00 24 00 4A 01 F5 
10 03:46:29.319 G  RX 01 10 00 6E 00 46 8C 00 00 00 00 3F 70 06 17 3F 79 4C EC 3F 72 3E 79 3F 71 5A F6 00 00 00 00 43 3A 5F 81 43 31 9C A1 43 3C ED CF 43 36 4D D2 00 00 00 00 45 CE 4B A1 45 CF 8D E6 45 CF 00 E8 45 CE A7 2E 44 86 EF 40 40 B7 5A 37 3D 86 1D DB 3D 9A 0A 76 3E 03 9F 5F 3E 1D 5D 1D 42 FD 44 9A 42 42 3C 11 41 94 3C 7F 42 67 6D B2 3C CC F3 CF 42 20 3D 1D 3D D8 26 2D 3E 93 C9 E9 45 90 B8 00 45 5B 10 00 41 95 A6 7B 41 94 E0 90 00 00 00 00 00 00 00 00 27 7F 
10 03:46:29.388 G  TX 01 10 00 6E 00 46 20 26 
10 03:46:29.930 G  RX 01 03 00 00 00 10 44 06 
10 03:46:29.999 G  TX 01 03 20 00 00 00 00 40 80 00 00 C2 B8 00 00 00 00 00 00 00 00 00 00 C1 00 00 00 C3 0F 00 00 00 00 00 00 29 C4 
10 03:46:30.136 G  RX 01 10 00 24 00 4A 94 00 00 00 00 00 00 00 00 44 F9 42 2E 44 F8 F8 EF 45 00 09 E8 44 FA 36 52 46 90 8F E6 46 8F 13 CF 42 BE 70 F4 42 B2 8C 43 46 71 96 12 42 F0 68 34 42 F4 51 FC 42 E8 7B F0 42 EA C9 9B 42 F2 17 5C 41 16 CD C4 3F AF 70 91 3C 22 BA 4F 41 E8 00 00 42 00 00 00 00 00 00 00 3C 8B 67 92 3E 82 64 79 41 37 B5 CE 41 42 EC 51 41 40 EE FA 41 44 81 80 47 8A F1 00 43 53 B3 33 00 00 00 00 47 0F D1 DA 42 BC C4 7F 00 00 00 00 00 00 00 00 45 CD E6 EB 45 CE 2C 80 9A 7C 
10 03:46:30.205 G  TX 01 10 00 24 00 4A 01 F5 
10 03:46:30.321 G  RX 01 10 00 6E 00 46 8C 00 00 00 00 3F 6F E2 48 3F 77 45 5F 3F 71 AD F4 3F 71 A1 F7 00 00 00 00 43 3A 38 71 43 33 26 84 43 3D 3B F0 43 36 1C FE 00 00 00 00 45 CE 37 7C 45 CF A2 0A 45 CF 34 2D 45 CE 89 E2 44 86 9B 44 40 9A 0E 1A 3D AA 93 55 3D 99 9D 44 3E 01 A8 BC 3E 1D 70 30 42 FD 44 9A 42 42 07 FB 41 94 3C 7F 42 68 3E 08 3C D3 76 35 42 20 38 7F 3E 06 1D DB 3E 91 2F 3C 45 90 B8 00 45 5B 10 00 41 93 BC E4 41 94 8D 3A 00 00 00 00 00 00 00 00 45 9D 
10 03:46:30.389 G  TX 01 10 00 6E 00 46 20 26 
10 03:46:30.930 G  RX 01 03 00 00 00 10 44 06 
10 03:46:31.000 G  TX 01 03 20 00 00 00 00 40 80 00 00 C2 B8 00 00 00 00 00 00 00 00 00 00 C1 00 00 00 C3 0F 00 00 00 00 00 00 29 C4 
10 03:46:31.135 G  RX 01 10 00 24 00 4A 94 00 00 00 00 00 00 00 00 44 F9 73 02 44 F8 CC 2D 45 00 14 14 44 FA 63 15 46 90 8F E6 46 8F 13 CF 42 BE 3C 4D 42 B4 DB AC 46 71 98 34 42 F0 D2 53 42 F4 6C 88 42 E8 D2 0E 42 E9 92 2F 42 F1 CE 63 41 15 27 6E 40 17 78 F5 3C D5 3F F1 41 E8 00 00 42 00 00 00 00 00 00 00 3C 8B 67 92 3E 82 64 79 41 37 9F F0 41 42 E1 69 41 40 A3 0C 41 44 63 DF 47 8A F1 80 43 57 19 9A 00 00 00 00 47 0F D1 DA 42 BC B0 E0 00 00 00 00 00 00 00 00 45 CD E5 16 45 CE 37 7C 3C 74 
10 03:46:31.204 G  TX 01 10 00 24 00 4A 01 F5 
10 03:46:31.322 G  RX 01 10 00 6E 00 46 8C 00 00 00 00 3F 6F E7 2F 3F 77 23 DF 3F 71 ED DA 3F 73 25 DC 00 00 00 00 43 3A 24 E8 43 33 33 8A 43 3D 0B 1B 43 36 64 9B 00 00 00 00 45 CE 3E CF 45 CF 9A B7 45 CE F7 C0 45 CE B9 7E 44 86 DA BE 40 9B 08 1B 3D AA 93 55 3D 9C 0A FC 3D FF 59 BC 3E 1D 86 2E 42 FE 70 16 42 41 B9 DB 41 92 48 7D 42 67 1A 5C 3C D4 3B DA 42 20 24 E4 3E 00 E8 81 3E 78 B3 A3 45 90 B8 00 45 5B 10 00 41 94 1A A4 41 95 BB 50 00 00 00 00 00 00 00 00 31 7C 
10 03:46:31.390 G  TX 01 10 00 6E 00 46 20 26 
10 03:46:31.932 G  RX 01 03 00 00 00 10 44 06 
10 03:46:32.001 G  TX 01 03 20 00 00 00 00 40 80 00 00 C2 B8 00 00 00 00 00 00 00 00 00 00 C1 00 00 00 C3 0F 00 00 00 00 00 00 29 C4 
10 03:46:32.139 G  RX 01 10 00 24 00 4A 94 00 00 00 00 00 00 00 00 44 F9 2D D5 44 F9 19 7D 45 00 05 D6 44 FA 0D A2 46 90 8F E6 46 8F 13 CF 42 BE 2F 23 42 B4 A7 18 46 71 9A 56 42 F0 18 9E 42 F4 02 5A 42 E9 56 8E 42 EA 52 54 42 F2 53 11 41 12 B1 8A 40 57 0D A4 3C D5 1D CF 41 E8 00 00 42 00 00 00 00 00 00 00 3C 7C A9 1C 3E 82 64 79 41 37 B2 09 41 42 C9 B3 41 40 DD B2 41 44 84 2D 47 8A F2 00 43 56 B3 33 00 00 00 00 47 0F D1 DA 42 BC DE A9 00 00 00 00 00 00 00 00 45 CD DF 98 45 CE 35 A8 51 D8 
10 03:46:32.208 G  TX 01 10 00 24 00 4A 01 F5 
10 03:46:32.324 G  RX 01 10 00 6E 00 46 8C 00 00 00 00 3F 70 0E 63 3F 77 60 57 3F 72 34 E7 3F 75 01 F3 00 00 00 00 43 3A 48 B7 43 33 0C 79 43 3C CA 00 43 36 88 6A 00 00 00 00 45 CE 1D DA 45 CF 95 39 45 CE EE 98 45 CE BB 53 44 86 AD D2 40 B3 72 33 3D 9A F3 46 3D 9E 3F A3 3E 00 B9 2A 3E 1B 7C A4 42 FD 58 22 42 42 97 37 41 92 9B D3 42 6A 46 E0 3C D4 0D B9 42 20 18 13 3E 25 5D FB 3E 93 C9 E9 45 90 B8 00 45 5B 10 00 41 94 EA FA 41 94 2F 7A 00 00 00 00 00 00 00 00 7B E0 
10 03:46:32.392 G  TX 01 10 00 6E 00 46 20 26 
10 03:46:32.933 G  RX 01 03 00 00 00 10 44 06 
10 03:46:33.002 G  TX 01 03 20 00 00 00 00 40 80 00 00 C2 B8 00 00 00 00 00 00 00 00 00 00 C1 00 00 00 C3 0F 00 00 00 00 00 00 29 C4 
10 03:46:33.139 G  RX 01 10 00 24 00 4A 94 00 00 00 00 00 00 00 00 44 F9 4A 51 44 F9 01 13 45 00 10 02 44 F6 C3 55 46 90 8F E6 46 8F 13 CF 42 BE 35 B8 42 B4 8C CE 46 71 9C 78 42 EF F0 D3 42 F4 79 CE 42 E8 E5 EE 42 EA 80 B7 42 F1 BA 7C 41 10 35 B6 40 17 92 0E 3D 17 CE 1C 41 E8 00 00 42 00 00 00 00 00 00 00 3C 8B 67 92 3E 82 64 79 41 37 95 A1 41 42 E4 4D 41 40 EF A1 41 44 A9 8B 47 8A F2 80 43 56 33 33 00 00 00 00 47 0F D1 DA 42 BB 14 E1 00 00 00 00 00 00 00 00 45 CD D4 9B 45 CE 21 83 E4 A0 
10 03:46:33.208 G  TX 01 10 00 24 00 4A 01 F5 
10 03:46:33.324 G  RX 01 10 00 6E 00 46 8C 00 00 00 00 3F 74 32 6E 3F 77 9E 44 3F 72 2C B9 3F 75 B5 66 00 00 00 00 43 36 D6 8B 43 33 19 7F 43 3C D7 06 43 36 37 09 00 00 00 00 45 CE 37 7C 45 CF A0 35 45 CE F7 C0 45 CE A5 5A 44 86 DE A6 40 AA A8 2B 3D E9 13 94 3D 9F 72 76 3E 01 80 F7 3E 1A F0 25 42 FC EF F7 42 42 3C 11 41 93 BF 7E 42 68 CF DE 3C D2 34 CB 42 20 22 07 3E 10 88 91 3E 8E 94 8F 45 90 B8 00 45 5B 10 00 41 94 63 8F 41 98 36 BE 00 00 00 00 00 00 00 00 CC 07 
10 03:46:33.393 G  TX 01 10 00 6E 00 46 20 26 
10 03:46:33.933 G  RX 01 03 00 00 00 10 44 06 
10 03:46:34.003 G  TX 01 03 20 00 00 00 00 40 80 00 00 C2 B8 00 00 00 00 00 00 00 00 00 00 C1 00 00 00 C3 0F 00 00 00 00 00 00 29 C4 
10 03:46:34.138 G  RX 01 10 00 24 00 4A 94 00 00 00 00 00 00 00 00 44 F9 73 02 44 F8 F0 CC 45 02 23 06 44 F5 FB F3 46 90 8F E6 46 8F 13 CF 42 BE 2F 23 42 B5 03 1C 46 71 9E 9A 42 EF B5 24 42 F3 D3 E7 42 E8 DF 4E 42 EA C9 9B 42 F2 60 56 41 0D BD 40 40 17 CB 60 3D 1C BA D0 41 E8 00 00 42 00 00 00 00 00 00 00 3C 8B 67 92 3E 83 F5 F3 41 37 9F AA 41 42 EC D1 41 40 C1 F6 41 44 A2 D0 47 8A F3 00 43 58 E6 66 00 00 00 00 47 0F D1 DA 42 BA 8B 91 00 00 00 00 00 00 00 00 45 CD DA 1A 45 CE 27 01 00 21 
10 03:46:34.208 G  TX 01 10 00 24 00 4A 01 F5 
10 03:46:34.323 G  RX 01 10 00 6E 00 46 8C 00 00 00 00 3F 74 7C 0C 3F 77 38 7A 3F 72 20 E7 3F 74 F4 7C 00 00 00 00 43 36 B5 FD 43 33 29 C5 43 3C DA 47 43 36 64 9B 00 00 00 00 45 CE 35 A8 45 CF A5 B4 45 CE E7 45 45 CE CD A2 44 86 9F 2C 40 A3 D2 24 3D 8B 53 36 3D 9F EE B8 3E 01 92 2F 3E 1A 5F 48 42 FD 1D 8A 42 41 B9 DB 41 93 42 7E 42 69 0E 5E 3C CC 3D 1A 42 20 28 08 3E 2A 93 55 3E 98 FF 44 45 90 B8 00 45 5B 10 00 41 93 D1 B9 41 94 F5 65 00 00 00 00 00 00 00 00 66 C9 
10 03:46:34.392 G  TX 01 10 00 6E 00 46 20 26 
10 03:46:34.932 G  RX 01 03 00 00 00 10 44 06 
10 03:46:35.001 G  TX 01 03 20 00 00 00 00 40 80 00 00 C2 B8 00 00 00 00 00 00 00 00 00 00 C1 00 00 00 C3 0F 00 00 00 00 00 00 29 C4 
10 03:46:35.138 G  RX 01 10 00 24 00 4A 94 00 00 00 00 00 00 00 00 44 F9 5E A9 44 F9 15 6B 45 02 14 C8 44 F5 EF BE 46 90 8F E6 46 8F 13 CF 42 BE 01 11 42 B4 93 61 46 71 A0 BD 42 EE E7 92 42 F3 F5 15 42 E8 F3 2E 42 EA C9 9B 42 F1 B3 DA 41 0D C0 66 40 57 A9 8F 3D 05 D4 6C 41 E8 00 00 42 00 00 00 00 00 00 00 3C 98 7A 97 3E 83 F5 F3 41 37 B6 B2 41 42 CA 36 41 40 DC 0A 41 44 C1 9C 47 8A F3 80 43 5B 66 66 00 00 00 00 47 0F D1 DA 42 BB 4F BA 00 00 00 00 00 00 00 00 45 CD DB EE 45 CE 46 22 9C A9 
10 03:46:35.208 G  TX 01 10 00 24 00 4A 01 F5 
10 03:46:35.324 G  RX 01 10 00 6E 00 46 8C 00 00 00 00 3F 74 87 BA 3F 77 33 28 3F 72 59 A2 3F 71 F9 94 00 00 00 00 43 36 B5 FD 43 33 23 43 43 3C B9 BA 43 36 5A D7 00 00 00 00 45 CE 4D 75 45 CF A7 88 45 CE EA EE 45 CE A3 85 44 86 BE 6C 40 A4 CC 25 3E 20 CF 4B 3D A1 7F 41 3E 03 85 9F 3E 19 55 70 42 FD 03 7F 42 42 56 1C 41 93 18 D3 42 67 FF 88 3C CA F3 2C 42 20 1E CC 3E 1A F3 46 3E 8E 94 8F 45 90 B8 00 45 5B 10 00 41 96 D4 91 41 96 E9 67 00 00 00 00 00 00 00 00 CC C4 
10 03:46:35.392 G  TX 01 10 00 6E 00 46 20 26 
10 03:46:35.934 G  RX 01 03 00 00 00 10 44 06 
10 03:46:36.003 G  TX 01 03 20 00 00 00 00 40 80 00 00 C2 B8 00 00 00 00 00 00 00 00 00 00 C1 00 00 00 C3 0F 00 00 00 00 00 00 29 C4 
10 03:46:36.140 G  RX 01 10 00 24 00 4A 94 00 00 00 00 00 00 00 00 44 F9 7F 37 44 F9 0D 48 45 02 1E F4 44 F5 E3 89 46 90 8F E6 46 8F 13 CF 42 BD FA 7C 42 B4 3D F2 46 71 A2 DF 42 F0 B1 29 42 F4 44 B7 42 E8 61 71 42 EB 7C 89 42 F2 24 A1 41 11 0B 6A 40 56 F3 24 3D 05 D3 61 41 E8 00 00 42 00 00 00 00 00 00 00 3C 8B 67 92 3E 82 64 79 41 37 A3 C2 41 42 EE 9A 41 40 F3 6E 41 44 7C 56 47 8A F4 00 43 5A 33 33 00 00 00 00 47 0F D1 DA 42 BD 54 65 00 00 00 00 00 00 00 00 45 CD CF 1D 45 CE 07 E1 D9 7F 
10 03:46:36.210 G  TX 01 10 00 24 00 4A 01 F5 
10 03:46:36.326 G  RX 01 10 00 6E 00 46 8C 00 00 00 00 3F 70 3B 97 3F 77 35 54 3F 76 7C 4A 3F 71 5C C6 00 00 00 00 43 3A 07 9C 43 33 23 43 43 3C A2 F0 43 36 44 0E 00 00 00 00 45 CE 2E 54 45 CF A5 B4 45 CE D6 CA 45 CE 9C 32 44 86 DD AC 40 AA A8 2B 3D 62 90 E3 3D A2 27 B1 3E 05 3C 2E 3E 19 44 51 42 FD 78 AF 42 42 49 16 41 96 30 81 42 69 A0 34 3C CC 5F 16 42 20 21 CC 3D E2 90 E3 3E 8B F9 E1 45 90 B8 00 45 5B 10 00 41 95 C5 BB 41 95 BB 50 00 00 00 00 00 00 00 00 AA 87 
10 03:46:36.395 G  TX 01 10 00 6E 00 46 20 26 
10 03:46:36.934 G  RX 01 03 00 00 00 10 44 06 
10 03:46:37.002 G  TX 01 03 20 00 00 00 00 40 80 00 00 C2 BA 00 00 00 00 00 00 00 00 00 00 C1 00 00 00 C3 0F 00 00 00 00 00 00 B0 BD 
10 03:46:37.112 B  RX 01 10 00 24 00 4A 94 00 00 00 00 00 00 00 00 44 F9 4E 63 44 F9 4A 51 45 02 10 B6 44 F6 18 6F 46 90 8F E6 46 8F 13 CF 42 BD D2 FF 42 B6 BB 86 46 71 A5 01 42 EF 30 83 42 F4 58 9F 42 E8 F3 2E 42 EB 90 6A 42 F2 74 3D 41 15 2A DD 40 56 76 EA 3C B7 26 0C 41 E8 00 00 42 00 00 00 00 00 00 00 3C 8B 67 92 3E 83 F5 F3 41 37 91 3B 41 42 EE D2 41 
10 03:46:37.140 B  RX 40 D7 79 41 44 82 4E 47 8A F4 80 43 59 19 9A 00 00 00 00 47 0F D1 DA 42 BD D0 AE 00 00 00 00 00 00 00 00 45 CD B7 4F 45 CE 0B 8A 94 E5 
10 03:46:37.976 G  RX 01 10 00 6E 00 46 8C 00 00 00 00 3F 70 1D 5D 3F 7A 0B 18 3F 76 37 F9 3F 70 F9 B1 00 00 00 00 43 3A 1B 24 43 31 4E 81 43 3C AF F6 43 36 67 DD 00 00 00 00 45 CE 25 2D 45 CF B4 5A 45 CE FB 69 45 CE B4 00 44 86 44 5A 40 9A 0E 1A 3D AF C8 B0 3D A3 1A 28 3E 07 E6 1B 3E 17 B5 69 42 FD 7F 32 42 42 49 16 41 93 6C 29 42 68 BB 09 3C CA EC 7F 42 20 27 85 3E 06 1D DB 3E 78 B3 A3 45 90 B8 00 45 5B 10 00 41 96 23 7B 41 95 A6 7B 00 00 00 00 00 00 00 00 5B 62 
10 03:46:38.044 G  TX 01 10 00 6E 00 46 20 26 
10 03:46:38.075 G  RX 01 03 00 00 00 10 44 06 
10 03:46:38.145 G  TX 01 03 20 00 00 00 00 40 80 00 00 C2 BA 00 00 00 00 00 00 00 00 00 00 C1 00 00 00 C3 0F 00 00 00 00 00 00 B0 BD 
10 03:46:38.280 G  RX 01 10 00 24 00 4A 94 00 00 00 00 00 00 00 00 44 F9 52 74 44 F8 DC 73 45 00 1C 37 44 F5 C2 FB 46 90 8F E6 46 8F 13 CF 42 BE 21 F9 42 B5 10 41 46 71 A7 23 42 F1 07 63 42 F4 1C E5 42 E8 8F D0 42 EB AA ED 42 F1 C7 C1 41 16 D2 B5 40 8B 42 FD 3C B1 62 2F 41 E8 00 00 42 00 00 00 00 00 00 00 3C 98 7A 97 3E 83 2D 36 41 37 B6 8D 41 42 DF 26 41 40 BC F6 41 44 70 2E 47 8A F5 00 43 59 CC CD 00 00 00 00 47 0F D1 DA 42 BB AB 47 00 00 00 00 00 00 00 00 45 CD EE 3E 45 CE 31 FE 85 75 
10 03:46:38.348 G  TX 01 10 00 24 00 4A 01 F5 
10 03:46:38.466 G  RX 01 10 00 6E 00 46 8C 00 00 00 00 3F 70 1D 5D 3F 7A 0B 18 3F 76 37 F9 3F 70 F9 B1 00 00 00 00 43 3A 1B 24 43 31 4E 81 43 3C AF F6 43 36 67 DD 00 00 00 00 45 CE 25 2D 45 CF B4 5A 45 CE FB 69 45 CE B4 00 44 86 44 5A 40 9A 0E 1A 3D AF C8 B0 3D A3 1A 28 3E 07 E6 1B 3E 17 B5 69 42 FD 7F 32 42 42 49 16 41 93 6C 29 42 68 BB 09 3C CA EC 7F 42 20 27 85 3E 06 1D DB 3E 78 B3 A3 45 90 B8 00 45 5B 10 00 41 96 23 7B 41 95 A6 7B 00 00 00 00 00 00 00 00 5B 62 
10 03:46:38.534 G  TX 01 10 00 6E 00 46 20 26 
10 03:46:39.074 G  RX 01 03 00 00 00 10 44 06 
10 03:46:39.144 G  TX 01 03 20 00 00 00 00 40 80 00 00 C2 BA 00 00 00 00 00 00 00 00 00 00 C1 00 00 00 C3 0F 00 00 00 00 00 00 B0 BD 
10 03:46:39.280 G  RX 01 10 00 24 00 4A 94 00 00 00 00 00 00 00 00 44 F9 6E F0 44 F9 25 B2 45 02 31 44 44 F5 DF 77 46 90 8F E6 46 8F 13 CF 42 BE A5 9C 42 B5 31 1E 46 71 A9 45 42 F1 28 8D 42 F4 87 14 42 E9 71 0E 42 EA F7 FE 42 F1 EF 8E 41 15 2F 8C 40 AB 01 93 3C B1 6F A8 41 E8 00 00 42 00 00 00 00 00 00 00 3C 8B 67 92 3E 7B 60 1C 41 37 C0 94 41 42 D0 15 41 41 00 42 41 44 85 D6 47 8A F5 80 43 57 E6 66 00 00 00 00 47 0F D1 DA 42 BB 8A 95 00 00 00 00 00 00 00 00 45 CD FB 0F 45 CE 35 A8 24 2A 
10 03:46:39.349 G  TX 01 10 00 24 00 4A 01 F5 
10 03:46:39.465 G  RX 01 10 00 6E 00 46 8C 00 00 00 00 3F 70 07 F2 3F 7B C2 9E 3F 75 EE CD 3F 71 94 B6 00 00 00 00 43 3A 28 2A 43 2F E1 EA 43 3C E0 CA 43 36 33 C7 00 00 00 00 45 CE 2C 80 45 CF A3 DF 45 CE EC C3 45 CE 96 B4 44 86 45 54 40 93 38 13 3D 8B 53 36 3D A1 83 72 3E 09 0F 0B 3E 17 57 C5 42 FC DC 6F 42 42 49 16 41 95 DD 2B 42 69 A0 34 3C D1 C5 EA 42 20 2B C8 3E 20 28 A0 3E 84 29 D9 45 90 B8 00 45 5B 10 00 41 95 F9 D1 41 95 87 3B 00 00 00 00 00 00 00 00 0E 71 
10 03:46:39.534 G  TX 01 10 00 6E 00 46 20 26 
10 03:46:40.077 G  RX 01 03 00 00 00 10 44 06 
10 03:46:40.146 G  TX 01 03 20 00 00 00 00 40 80 00 00 C2 BA 00 00 00 00 00 00 00 00 00 00 C1 00 00 00 C3 0F 00 00 00 00 00 00 B0 BD 
10 03:46:40.282 G  RX 01 10 00 24 00 4A 94 00 00 00 00 00 00 00 00 44 F9 62 BB 44 F8 D4 50 45 02 0C A5 44 F6 24 A4 46 90 8F E6 46 8F 13 CF 42 BE 3C 4D 42 B3 BA 83 46 71 AB 67 42 F0 AA 87 42 F4 3E 14 42 E9 8B 8E 42 EA 2A 93 42 F2 59 B4 41 12 B5 08 40 AA D4 8A 3D 0B 7C B0 41 E8 00 00 42 00 00 00 00 00 00 00 3C 98 7A 97 3E 7E 83 0E 41 37 AB D3 41 42 EE A0 41 40 E8 9E 41 44 86 FE 47 8A F6 00 43 57 CC CD 00 00 00 00 47 0F D1 DA 42 BF A7 BC 00 00 00 00 00 00 00 00 45 CD EE 3E 45 CE 28 D6 36 D7 
10 03:46:40.350 G  TX 01 10 00 24 00 4A 01 F5 
10 03:46:40.467 G  RX 01 10 00 6E 00 46 8C 00 00 00 00 3F 6F D2 F1 3F 7B B6 6F 3F 72 94 76 3F 71 31 CC 00 00 00 00 43 3A 42 35 43 2F F5 72 43 3C A2 F0 43 36 3A 4A 00 00 00 00 45 CE 54 C8 45 CF C3 00 45 CE E5 70 45 CE 9C 32 44 85 D5 FF 40 B6 60 36 3D D4 3E 2A 3D A2 12 92 3E 06 BD B1 3E 17 63 1C 43 00 39 35 42 3F FF 24 41 95 0C D5 42 68 BB 09 3C E4 41 36 42 20 46 40 3D E2 90 E3 3E 69 13 94 45 90 B8 00 45 5B 10 00 41 94 EA FA 41 94 4E BA 00 00 00 00 00 00 00 00 2E 2A 
10 03:46:40.536 G  TX 01 10 00 6E 00 46 20 26 
10 03:46:41.076 G  RX 01 03 00 00 00 10 44 06 
10 03:46:41.144 G  TX 01 03 20 00 00 00 00 40 80 00 00 C2 BA 00 00 00 00 00 00 00 00 00 00 C1 00 00 00 C3 0F 00 00 00 00 00 00 B0 BD 
10 03:46:41.282 G  RX 01 10 00 24 00 4A 94 00 00 00 00 00 00 00 00 44 F9 7F 37 44 F8 F8 EF 45 02 12 BF 44 F9 9F C4 46 90 8F E6 46 8F 13 CF 42 BE 5D 35 42 B2 A6 8B 46 71 AD 89 42 EE 8A BE 42 F4 73 2B 42 E9 07 0E 42 EA 7A 16 42 F2 4C 6F 41 10 3B 3C 40 AA 9F C3 3D 2C CD D9 41 E8 00 00 42 00 00 00 00 00 00 00 3C 8B 67 92 3E A3 53 68 41 37 CD AF 41 42 DF 74 41 40 E2 1D 41 44 A8 E3 47 8A F6 80 43 58 B3 33 00 00 00 00 47 0F D1 DA 42 BE 67 24 00 00 00 00 00 00 00 00 45 CD D8 45 45 CE 23 58 64 56 
10 03:46:41.350 G  TX 01 10 00 24 00 4A 01 F5 
10 03:46:41.468 G  RX 01 10 00 6E 00 46 8C 00 00 00 00 3F 70 30 73 3F 77 61 EF 3F 76 33 04 3F 71 2B 85 00 00 00 00 43 3A 01 1A 43 33 19 7F 43 3C E4 0B 43 36 3D 8B 00 00 00 00 45 CE 42 79 45 CF 9C 8C 45 CE E3 9B 45 CE B5 D5 44 85 D2 17 40 B6 60 36 3D 77 66 4D 3D A0 C8 47 3E 04 B4 FF 3E 17 06 A8 43 01 30 9C 42 3F 21 C8 41 93 95 D4 42 67 58 DD 3C E5 C4 BC 42 20 46 FF 3E 3F 68 BF 3E 81 8F 2C 45 90 B8 00 45 5B 10 00 41 95 9C 10 41 94 E0 90 00 00 00 00 00 00 00 00 DE F6 
10 03:46:41.536 G  TX 01 10 00 6E 00 46 20 26 
10 03:46:42.077 G  RX 01 03 00 00 00 10 44 06 
10 03:46:42.145 G  TX 01 03 20 00 00 00 00 40 80 00 00 C2 BA 00 00 00 00 00 00 00 00 00 00 C1 00 00 00 C3 0F 00 00 00 00 00 00 B0 BD 
10 03:46:42.281 G  RX 01 10 00 24 00 4A 94 00 00 00 00 00 00 00 00 44 F9 46 3F 44 F8 D4 50 45 02 35 55 44 F9 F1 26 46 90 8F E6 46 8F 13 CF 42 BD BF 40 42 B5 A0 DB 46 71 AF AB 42 EF 79 75 42 F4 23 88 42 E9 3C 0E 42 EA FE 9E 42 F1 FC D3 41 0F 68 7F 40 AA AF EB 3D 2A 08 17 41 E8 00 00 42 00 00 00 00 00 00 00 3C 98 7A 97 3E 62 48 8B 41 37 B9 9E 41 42 BF 80 41 40 EB 57 41 44 D2 B9 47 8A F7 00 43 59 B3 33 00 00 00 00 47 0F D1 DA 42 BB 49 30 00 00 00 00 00 00 00 00 45 CE 00 8E 45 CE 51 1F 8E 1E 
10 03:46:42.350 G  TX 01 10 00 24 00 4A 01 F5 
10 03:46:42.467 G  RX 01 10 00 6E 00 46 8C 00 00 00 00 3F 74 4D FA 3F 77 5F EE 3F 76 3A 24 3F 71 A5 05 00 00 00 00 43 37 0A A0 43 33 29 C5 43 3C A9 73 43 36 30 86 00 00 00 00 45 CE 28 D6 45 CF B0 B0 45 CE E3 9B 45 CE 96 B4 44 86 0F 9E 40 9C FC 1D 3D DE A8 DF 3D A1 75 19 3E 03 1F 1D 3E 15 9E 1D 43 01 4D E8 42 3F 2E CE 41 94 66 2A 42 68 A6 33 3C DD 52 A6 42 20 22 F7 3D E2 90 E3 3E A6 04 A6 45 90 B8 00 45 5B 10 00 41 95 D0 26 41 95 29 7A 00 00 00 00 00 00 00 00 C4 DA 
10 03:46:42.535 G  TX 01 10 00 6E 00 46 20 26 
10 03:46:43.076 G  RX 01 03 00 00 00 10 44 06 
10 03:46:43.144 G  TX 01 03 20 00 00 00 00 40 80 00 00 C2 BA 00 00 00 00 00 00 00 00 00 00 C1 00 00 00 C3 0F 00 00 00 00 00 00 B0 BD 
10 03:46:43.281 G  RX 01 10 00 24 00 4A 94 00 00 00 00 00 00 00 00 44 F9 7B 25 44 F9 15 6B 45 02 2B 29 44 F7 BF 9E 46 90 8F E6 46 8F 13 CF 42 BE 6A 5F 42 B4 C1 62 46 71 B1 CD 42 F0 04 B8 42 F3 E7 CF 42 E8 D2 0E 42 EB 83 29 42 F1 CE 63 41 0F 68 4B 40 AA 0F F3 3D 2A 1C 03 41 E8 00 00 42 00 00 00 00 00 00 00 3C 98 7A 97 3E 83 2D 36 41 37 99 B9 41 42 E8 41 41 40 F7 EB 41 44 83 10 47 8A F7 80 43 56 00 00 00 00 00 00 47 0F D1 DA 42 BE F0 88 00 00 00 00 00 00 00 00 45 CD D4 9B 45 CE 37 7C 8D 9E 
10 03:46:43.349 G  TX 01 10 00 24 00 4A 01 F5 
10 03:46:43.467 G  RX 01 10 00 6E 00 46 8C 00 00 00 00 3F 74 5D EE 3F 77 01 D9 3F 76 0D B9 3F 75 14 3B 00 00 00 00 43 36 C9 85 43 33 4D 94 43 3C BC FB 43 36 2D 45 00 00 00 00 45 CE 35 A8 45 CF 9C 8C 45 CE FD 3E 45 CE 96 B4 44 86 2F D8 40 96 26 16 3D 58 26 2D 3D A0 76 EE 3E 03 5F 29 3E 15 95 91 43 01 74 F8 42 3F 21 C8 41 94 B9 7F 42 69 38 09 3C D6 9A 10 42 20 16 92 3E 10 88 91 3E 69 13 94 45 90 B8 00 45 5B 10 00 41 95 EF 66 41 94 E0 90 00 00 00 00 00 00 00 00 6C 1D 
10 03:46:43.535 G  TX 01 10 00 6E 00 46 20 26 
10 03:46:44.073 G  RX 01 03 00 00 00 10 44 06 
10 03:46:44.141 G  TX 01 03 20 00 00 00 00 40 80 00 00 C2 BA 00 00 00 00 00 00 00 00 00 00 C1 00 00 00 C3 0F 00 00 00 00 00 00 B0 BD 
10 03:46:44.278 G  RX 01 10 00 24 00 4A 94 00 00 00 00 00 00 00 00 44 F9 3A 0A 44 F8 FD 01 45 02 3F 82 44 F5 D3 42 46 90 8F E6 46 8F 13 CF 42 BE 84 B3 42 B5 A0 DB 46 71 B3 F0 42 EE B9 28 42 F3 F5 15 42 E8 F9 CE 42 E9 C7 30 42 F1 E8 EC 41 11 0B 40 40 89 F2 E4 3D 27 B7 23 41 E8 00 00 42 00 00 00 00 00 00 00 3C 8B 67 92 3E A2 8A AC 41 37 A3 7E 41 42 EA 54 41 40 D7 50 41 44 82 85 47 8A F8 00 43 57 19 9A 00 00 00 00 47 0F D1 DA 42 BE B5 A6 00 00 00 00 00 00 00 00 45 CD DA 1A 45 CE 30 29 E4 3F 
10 03:46:44.348 G  TX 01 10 00 24 00 4A 01 F5 
10 03:46:44.463 G  RX 01 10 00 6E 00 46 8C 00 00 00 00 3F 74 A1 0B 3F 77 18 56 3F 76 66 CA 3F 75 19 DF 00 00 00 00 43 36 BC 80 43 33 33 8A 43 3C B3 37 43 36 51 13 00 00 00 00 45 CE 37 7C 45 CF AB 32 45 CE F4 16 45 CE AC AD 44 86 28 08 40 AC 9C 2D 3D 6C FB 98 3D 9F F7 64 3E 06 4F 42 3E 17 D5 68 43 01 71 B6 42 3E 92 8D 41 95 89 D6 42 68 3E 08 3C D0 24 36 42 20 20 FB 3D F7 66 4D 3E 73 7E 49 45 90 B8 00 45 5B 10 00 41 96 57 91 41 93 88 CE 00 00 00 00 00 00 00 00 9C 3A 
10 03:46:44.532 G  TX 01 10 00 6E 00 46 20 26 
10 03:46:45.073 G  RX 01 03 00 00 00 10 44 06 
10 03:46:45.142 G  TX 01 03 20 00 00 00 00 40 80 00 00 C2 BA 00 00 00 00 00 00 00 00 00 00 C1 00 00 00 C3 0F 00 00 00 00 00 00 B0 BD 
10 03:46:45.278 G  RX 01 10 00 24 00 4A 94 00 00 00 00 00 00 00 00 44 F9 2D D5 44 F8 D0 3E 45 02 39 67 44 F6 18 6F 46 90 8F E6 46 8F 13 CF 42 BE 21 F9 42 B3 7F 60 46 71 B6 12 42 EF CF AA 42 F4 87 14 42 E8 D8 AE 42 EB 4E 24 42 F1 F6 31 41 11 09 E9 40 89 85 83 3D 40 4F E6 41 E8 00 00 42 00 00 00 00 00 00 00 3C 8B 67 92 3E 9A B3 4E 41 37 BA 7B 41 42 DE CD 41 40 C7 74 41 44 4D 69 47 8A F8 80 43 55 19 9A 00 00 00 00 47 0F D1 DA 42 BC 00 4B 00 00 00 00 00 00 00 00 45 CD E6 EB 45 CE 35 A8 2A 4B 
10 03:46:45.346 G  TX 01 10 00 24 00 4A 01 F5 
10 03:46:45.463 G  RX 01 10 00 6E 00 46 8C 00 00 00 00 3F 70 53 3D 3F 77 16 9F 3F 75 FD DF 3F 73 0D 1E 00 00 00 00 43 39 DD 4B 43 33 4D 94 43 3C DD 89 43 36 4A 91 00 00 00 00 45 CE 2A AB 45 CF AD 07 45 CF 0D B9 45 CE 9E 07 44 85 9E 55 40 B6 60 36 3D 77 66 4D 3D A0 5E 8E 3E 06 16 51 3E 18 31 45 43 02 11 38 42 40 67 4F 41 95 DD 2B 42 67 C1 08 3C D1 52 5A 42 20 1C 32 3E 00 E8 81 3E 73 7E 49 45 90 B8 00 45 5B 10 00 41 96 0E A6 41 94 82 CF 00 00 00 00 00 00 00 00 5C 4A 
10 03:46:45.532 G  TX 01 10 00 6E 00 46 20 26 
10 03:46:46.073 G  RX 01 03 00 00 00 10 44 06 
10 03:46:46.141 G  TX 01 03 20 00 00 00 00 40 80 00 00 C2 BA 00 00 00 00 00 00 00 00 00 00 C1 00 00 00 C3 0F 00 00 00 00 00 00 B0 BD 
10 03:46:46.279 G  RX 01 10 00 24 00 4A 94 00 00 00 00 00 00 00 00 44 F9 A3 D6 44 F8 F4 DE 45 02 3B 70 44 F5 E3 89 46 90 8F E6 46 8F 13 CF 42 BE 84 B3 42 B4 AD AB 46 71 B8 34 42 EB F3 D4 42 F4 5F 42 42 E9 14 4E 42 EA C9 9B 42 F2 0A 18 41 0F 61 4D 40 52 2E 10 3D 50 3E 1F 41 E8 00 00 42 00 00 00 00 00 00 00 3C 8B 67 92 3E 9B 7C 0B 41 37 B0 13 41 42 DA 72 41 40 F2 C7 41 44 40 6B 47 8A F9 00 43 53 66 66 00 00 00 00 47 0F D1 DA 42 B8 87 1F 00 00 00 00 00 00 00 00 45 CD C9 9F 45 CE 1C 05 2B FF 
10 03:46:46.348 G  TX 01 10 00 24 00 4A 01 F5 
10 03:46:46.464 G  RX 01 10 00 6E 00 46 8C 00 00 00 00 3F 6F E6 E6 3F 77 48 66 3F 76 42 7B 3F 71 2C 55 00 00 00 00 43 3A 2B 6B 43 33 12 FC 43 3C D3 C4 43 36 40 CD 00 00 00 00 45 CE 27 01 45 CF 9E 61 45 CE FF 13 45 CE A7 2E 44 86 30 D2 40 A1 DE 22 3D E9 13 94 3D A1 64 AA 3E 04 63 79 3E 18 F4 D9 43 01 2A 19 42 41 D3 E6 41 94 E3 2A 42 68 BB 09 3C E0 93 35 42 20 1E 53 3E B5 A4 B6 3E 86 C4 87 45 90 B8 00 45 5B 10 00 41 95 0A 3A 41 94 44 4F 00 00 00 00 00 00 00 00 A6 51 
10 03:46:46.532 G  TX 01 10 00 6E 00 46 20 26 
10 03:46:47.072 G  RX 01 03 00 00 00 10 44 06 
10 03:46:47.141 G  TX 01 03 20 00 00 00 00 40 80 00 00 C2 BA 00 00 00 00 00 00 00 00 00 00 C1 00 00 00 C3 0F 00 00 00 00 00 00 B0 BD 
10 03:46:47.279 G  RX 01 10 00 24 00 4A 94 00 00 00 00 00 00 00 00 44 F9 3E 1C 44 F9 1D 8E 45 02 25 0F 44 F6 00 05 46 90 8F E6 46 8F 13 CF 42 BE 3C 4D 42 B5 2A 8B 46 71 BA 56 42 F0 75 78 42 F4 58 9F 42 E9 00 6E 42 EB 89 CA 42 F2 45 CD 41 0D BB 8D 40 51 A4 92 3D 50 43 43 41 E8 00 00 42 00 00 00 00 00 00 00 3C 98 7A 97 3E 9B 7C 0B 41 37 9B 6B 41 42 F7 90 41 40 ED 37 41 44 94 3F 47 8A F9 80 43 4F E6 66 00 00 00 00 47 0F D1 DA 42 BB 28 7F 00 00 00 00 00 00 00 00 45 CD D8 45 45 CE 09 B5 13 C0 
10 03:46:47.347 G  TX 01 10 00 24 00 4A 01 F5 
10 03:46:47.465 G  RX 01 10 00 6E 00 46 8C 00 00 00 00 3F 70 4B A2 3F 76 94 CF 3F 76 58 E8 3F 71 90 71 00 00 00 00 43 3A 28 2A 43 33 A8 BA 43 3C B9 BA 43 36 33 C7 00 00 00 00 45 CE 35 A8 45 CF E0 4C 45 CE FF 13 45 CE 9A 5D 44 86 05 DA 40 A7 BA 28 3D 77 66 4D 3D 9F C5 EC 3E 03 F3 1D 3E 1A 89 62 43 01 44 24 42 42 56 1C 41 94 3C 7F 42 6A 46 E0 3C D2 94 A1 42 20 2B 85 3E 00 E8 81 3E A0 CF 4B 45 90 B8 00 45 5B 10 00 41 95 87 3B 41 94 8D 3A 00 00 00 00 00 00 00 00 E7 32 
10 03:46:47.534 G  TX 01 10 00 6E 00 46 20 26 
10 03:46:48.072 G  RX 01 03 00 00 00 10 44 06 
10 03:46:48.141 G  TX 01 03 20 00 00 00 00 40 80 00 00 C2 BA 00 00 00 00 00 00 00 00 00 00 C1 00 00 00 C3 0F 00 00 00 00 00 00 B0 BD 
10 03:46:48.278 G  RX 01 10 00 24 00 4A 94 00 00 00 00 00 00 00 00 44 F9 66 CD 44 F8 EC BA 45 02 20 FD 44 F9 9F C4 46 90 8F E6 46 8F 13 CF 42 BD BF 40 42 B5 79 6B 46 71 BC 78 42 EE 62 F6 42 F3 CD 44 42 E8 F9 CE 42 EA 80 B7 42 F1 C1 1F 41 0C E4 BE 40 11 6F A4 3D 75 A9 F9 41 E8 00 00 42 00 00 00 00 00 00 00 3C 8B 67 92 3E 9A B3 4E 41 37 B5 DA 41 42 D7 25 41 40 BB 76 41 44 B9 06 47 8A FA 00 43 4F 19 9A 00 00 00 00 47 0F D1 DA 42 BC 20 FE 00 00 00 00 00 00 00 00 45 CD C2 4C 45 CE 2C 80 E4 F4 
10 03:46:48.347 G  TX 01 10 00 24 00 4A 01 F5 
10 03:46:48.464 G  RX 01 10 00 6E 00 46 8C 00 00 00 00 3F 70 0B 8F 3F 77 07 F3 3F 75 D8 D7 3F 71 15 96 00 00 00 00 43 3A 1B 24 43 33 47 12 43 3D 11 9E 43 36 5A D7 00 00 00 00 45 CE 27 01 45 CF BD 82 45 CF 0D B9 45 CE AA D8 44 86 1E 44 40 B7 5A 37 3D 90 88 91 3D A1 E8 28 3E 04 6A 0E 3E 1B D7 87 43 00 70 8C 42 42 3C 11 41 94 66 2A 42 67 EA B3 3C D3 59 76 42 20 1E FD 3E 25 5D FB 3E 73 7E 49 45 90 B8 00 45 5B 10 00 41 95 7C D0 41 95 48 BB 00 00 00 00 00 00 00 00 93 96 
10 03:46:48.531 G  TX 01 10 00 6E 00 46 20 26 
10 03:46:49.072 G  RX 01 03 00 00 00 10 44 06 
10 03:46:49.141 G  TX 01 03 20 00 00 00 00 40 80 00 00 C2 BA 00 00 00 00 00 00 00 00 00 00 C1 00 00 00 C3 0F 00 00 00 00 00 00 B0 BD 
10 03:46:49.277 G  RX 01 10 00 24 00 4A 94 00 00 00 00 00 00 00 00 44 F9 73 02 44 F9 01 13 45 00 09 E8 44 FA 15 C5 46 90 8F E6 46 8F 13 CF 42 BD ED 52 42 B6 A7 CD 46 71 BE 9A 42 EE AB E5 42 F4 37 71 42 E9 2E CE 42 EA 66 35 42 F2 7A E0 41 0B 3D FF 40 0F F3 11 3D 87 AA 9E 41 E8 00 00 42 00 00 00 00 00 00 00 3C 7C A9 1C 3E 9B 7C 0B 41 37 B0 7D 41 42 B8 F4 41 40 FC A2 41 44 C4 6D 47 8A FA 80 43 4E 66 66 00 00 00 00 47 0F D1 DA 42 BC 5B DA 00 00 00 00 00 00 00 00 45 CD C2 4C 45 CE 18 5B D8 98 
10 03:46:49.346 G  TX 01 10 00 24 00 4A 01 F5 
10 03:46:49.463 G  RX 01 10 00 6E 00 46 8C 00 00 00 00 3F 6F FF F4 3F 77 27 39 3F 76 19 4A 3F 71 96 9F 00 00 00 00 43 3A 2E AD 43 33 2D 07 43 3C D7 06 43 36 23 80 00 00 00 00 45 CE 3C FB 45 CF AD 07 45 CE F4 16 45 CE 93 0A 44 86 6D 5E 40 AC 9C 2D 3D 95 BD EB 3D A0 3A 78 3E 02 C4 F2 3E 1C E8 FA 42 FF 05 D4 42 42 7D 2C 41 94 3C 7F 42 68 E4 B4 3C D2 9A 70 42 20 07 52 3E 0B 53 36 3E 86 C4 87 45 90 B8 00 45 5B 10 00 41 93 2B 0E 41 95 33 E5 00 00 00 00 00 00 00 00 44 C6 
10 03:46:49.532 G  TX 01 10 00 6E 00 46 20 26 
10 03:46:50.075 G  RX 01 03 00 00 00 10 44 06 
10 03:46:50.144 G  TX 01 03 20 00 00 00 00 40 80 00 00 C2 BA 00 00 00 00 00 00 00 00 00 00 C1 00 00 00 C3 0F 00 00 00 00 00 00 B0 BD 
10 03:46:50.280 G  RX 01 10 00 24 00 4A 94 00 00 00 00 00 00 00 00 44 F9 56 86 44 F8 F8 EF 45 00 1A 2E 44 FA 32 41 46 90 8F E6 46 8F 13 CF 42 BE 7E 1E 42 B4 E2 3F 46 71 C0 BC 42 EF 1C 9E 42 F4 5F 42 42 E8 B7 8F 42 EB 4E 24 42 F2 4C 6F 41 09 98 99 40 0F 70 84 3D 83 90 1D 41 E8 00 00 42 00 00 00 00 00 00 00 3C 8B 67 92 3E 9A B3 4E 41 37 A1 D7 41 42 FE 73 41 40 FC C6 41 44 C5 3E 47 8A FB 00 43 4E 80 00 00 00 00 00 47 0F D1 DA 42 BD CA 23 00 00 00 00 00 00 00 00 45 CD E3 41 45 CE 06 0C CE 9D 
10 03:46:50.348 G  TX 01 10 00 24 00 4A 01 F5 
10 03:46:50.466 G  RX 01 10 00 6E 00 46 8C 00 00 00 00 3F 70 01 99 3F 77 19 F3 3F 76 02 94 3F 74 E2 06 00 00 00 00 43 3A 48 B7 43 33 40 8F 43 3C DD 89 43 36 47 4F 00 00 00 00 45 CE 28 D6 45 CF B2 85 45 CE F9 95 45 CE A3 85 44 86 82 DA 40 A2 D8 23 3D D9 73 84 3D 9B 79 E8 3E 02 59 A5 3E 1D 83 E5 42 FF 12 D9 42 41 B9 DB 41 92 72 28 42 67 D5 DD 3C CB 37 7E 42 20 05 81 3D E2 90 E3 3E 7D E8 FE 45 90 B8 00 45 5B 10 00 41 97 90 12 41 93 93 39 00 00 00 00 00 00 00 00 18 7E 
10 03:46:50.535 G  TX 01 10 00 6E 00 46 20 26 
10 03:46:51.075 G  RX 01 03 00 00 00 10 44 06 
10 03:46:51.145 G  TX 01 03 20 00 00 00 00 40 80 00 00 C2 BA 00 00 00 00 00 00 00 00 00 00 C1 00 00 00 C3 0F 00 00 00 00 00 00 B0 BD 
10 03:46:51.253 B  RX 01 10 00 24 00 4A 94 00 00 00 00 00 00 00 00 44 F9 9B B3 44 F8 F0 CC 45 00 0B F1 44 FA 21 FA 46 90 8F E6 46 8F 13 CF 42 BE 98 72 42 B4 7F AA 46 71 C2 DE 42 EE 62 F6 42 F4 23 88 42 E8 D8 AE 42 EA 31 33 42 F2 0A 18 41 09 9A 78 40 0F 73 FE 3D 83 7F 86 41 E8 00 00 42 00 00 00 00 00 00 00 3C 8B 67 92 3E A0 30 76 41 37 A7 0B 41 42 E5 FB 41 
10 03:46:51.281 B  RX 40 9C C8 41 44 84 CA 47 8A FB 80 43 4F 66 66 00 00 00 00 47 0F D1 DA 42 BC 0D 5F 00 00 00 00 00 00 00 00 45 CD C2 4C 45 CE 1C 05 39 30 
10 03:46:52.116 G  RX 01 10 00 6E 00 46 8C 00 00 00 00 3F 70 4E 6A 3F 77 54 07 3F 72 88 1F 3F 75 8B F9 00 00 00 00 43 3A 24 E8 43 33 40 8F 43 3C A6 32 43 36 3A 4A 00 00 00 00 45 CE 30 29 45 CF B8 03 45 CE E9 1A 45 CE 9C 32 44 86 FD E6 40 B6 60 36 3D 86 1D DB 3D 99 9C 82 3E 05 35 2A 3E 1B A2 5B 42 FE BE 36 42 44 86 03 41 94 E3 2A 42 69 61 B4 3C C6 BE 15 42 1F EC D4 3E 00 E8 81 3E 86 C4 87 45 90 B8 00 45 5B 10 00 41 96 81 3C 41 98 6A D3 00 00 00 00 00 00 00 00 40 FC 
10 03:46:52.184 G  TX 01 10 00 6E 00 46 20 26 
10 03:46:52.214 G  RX 01 03 00 00 00 10 44 06 
10 03:46:52.282 G  TX 01 03 20 00 00 00 00 40 80 00 00 C2 BC 00 00 00 00 00 00 00 00 00 00 C1 00 00 00 C3 11 00 00 00 00 00 00 E5 36 
10 03:46:52.420 G  RX 01 10 00 24 00 4A 94 00 00 00 00 00 00 00 00 44 F9 62 BB 44 F9 1D 8E 44 FF FF 77 44 FA 9C 0D 46 90 8F E6 46 8F 13 CF 42 BE A5 9C 42 B5 37 B0 46 71 C5 01 42 F0 68 34 42 F4 9A FD 42 E7 8D 7B 42 EA 94 98 42 F1 92 AF 41 0B 3F F6 3F 9C E0 1F 3D 80 71 E1 41 E8 00 00 42 00 00 00 00 00 00 00 3C 8B 67 92 3E 9E 9E FE 41 37 B2 32 41 42 D4 3E 41 40 CC 10 41 44 64 16 47 8A FC 00 43 4F 80 00 00 00 00 00 47 0F D1 DA 42 BB F9 C1 00 00 00 00 00 00 00 00 45 CD C4 21 45 CE 0F 34 35 F0 
10 03:46:52.490 G  TX 01 10 00 24 00 4A 01 F5 
10 03:46:52.605 G  RX 01 10 00 6E 00 46 8C 00 00 00 00 3F 70 4E 6A 3F 77 54 07 3F 72 88 1F 3F 75 8B F9 00 00 00 00 43 3A 24 E8 43 33 40 8F 43 3C A6 32 43 36 3A 4A 00 00 00 00 45 CE 30 29 45 CF B8 03 45 CE E9 1A 45 CE 9C 32 44 86 FD E6 40 B6 60 36 3D 86 1D DB 3D 99 9C 82 3E 05 35 2A 3E 1B A2 5B 42 FE BE 36 42 44 86 03 41 94 E3 2A 42 69 61 B4 3C C6 BE 15 42 1F EC D4 3E 00 E8 81 3E 86 C4 87 45 90 B8 00 45 5B 10 00 41 96 81 3C 41 98 6A D3 00 00 00 00 00 00 00 00 40 FC 
10 03:46:52.674 G  TX 01 10 00 6E 00 46 20 26 
10 03:46:53.214 G  RX 01 03 00 00 00 10 44 06 
10 03:46:53.283 G  TX 01 03 20 00 00 00 00 40 80 00 00 C2 BC 00 00 00 00 00 00 00 00 00 00 C1 00 00 00 C3 11 00 00 00 00 00 00 E5 36 
10 03:46:53.419 G  RX 01 10 00 24 00 4A 94 00 00 00 00 00 00 00 00 44 F9 3E 1C 44 F8 E0 85 44 FC 12 67 44 FA 52 CE 46 90 8F E6 46 8F 13 CF 42 BE 01 11 42 B4 37 5F 46 71 C7 23 42 EE 76 DA 42 F4 51 FC 42 E8 25 D3 42 EA C9 9B 42 F2 53 11 41 0D B9 17 3F 9A 3E 6B 3D 8B 16 27 41 E8 00 00 42 00 00 00 00 00 00 00 3C 8B 67 92 3E 44 7C 8F 41 37 A9 C1 41 42 D0 39 41 40 FC 10 41 44 7E 78 47 8A FC 80 43 51 B3 33 00 00 00 00 47 0F D1 DA 42 BC EB BD 00 00 00 00 00 00 00 00 45 CD D2 C7 45 CE 1F AE 63 D7 
10 03:46:53.488 G  TX 01 10 00 24 00 4A 01 F5 
10 03:46:53.605 G  RX 01 10 00 6E 00 46 8C 00 00 00 00 3F 6F EB 79 3F 77 48 F7 3F 72 43 EB 3F 74 FF 80 00 00 00 00 43 3A 45 76 43 33 29 C5 43 3C D7 06 43 36 7B 65 00 00 00 00 45 CE 31 FE 45 CF A2 0A 45 CE D6 CA 45 CE BB 53 44 86 86 C2 40 B6 60 36 3D A5 5D FB 3D 9B F3 45 3E 07 3F B2 3E 1D 6A BB 42 FF 88 0A 42 41 FA F6 41 95 DD 2B 42 68 CF DE 3C D2 DE 5A 42 1F E8 11 3E 25 5D FB 3E 63 DE 39 45 90 B8 00 45 5B 10 00 41 95 F9 D1 41 94 E0 90 00 00 00 00 00 00 00 00 8F 89 
10 03:46:53.674 G  TX 01 10 00 6E 00 46 20 26 
10 03:46:54.210 G  RX 01 03 00 00 00 10 44 06 
10 03:46:54.280 G  TX 01 03 20 00 00 00 00 40 80 00 00 C2 BC 00 00 00 00 00 00 00 00 00 00 C1 00 00 00 C3 11 00 00 00 00 00 00 E5 36 
10 03:46:54.416 G  RX 01 10 00 24 00 4A 94 00 00 00 00 00 00 00 00 44 F9 6A DE 44 F9 11 59 44 FB E9 B6 44 F9 C8 75 46 90 8F E6 46 8F 13 CF 42 BE 9F 07 42 B2 7F 1F 46 71 C9 45 42 EE C6 6B 42 F4 4B 5A 42 E8 EC 8E 42 EA 8D F7 42 F1 E8 EC 41 0E 8E B5 40 0C 16 31 3D 92 16 DA 41 E8 00 00 42 00 00 00 00 00 00 00 3C 8B 67 92 3E 58 DF B4 41 37 98 A9 41 42 F0 E6 41 40 E8 B9 41 44 7F 6C 47 8A FD 00 43 52 19 9A 00 00 00 00 47 0F D1 DA 42 BC 62 64 00 00 00 00 00 00 00 00 45 CD E3 41 45 CE 31 FE 95 31 
10 03:46:54.485 G  TX 01 10 00 24 00 4A 01 F5 
10 03:46:54.601 G  RX 01 10 00 6E 00 46 8C 00 00 00 00 3F 6F F4 6F 3F 77 28 0E 3F 76 6E 1E 3F 75 D7 8F 00 00 00 00 43 3A 2B 6B 43 33 36 CB 43 39 78 61 43 36 33 C7 00 00 00 00 45 CE 28 D6 45 CF AB 32 45 CE F5 EB 45 CE BB 53 44 86 7A 10 40 A1 DE 22 3D 86 1D DB 3D 9E F9 9D 3E 06 33 1C 3E 1E 32 2E 42 FE E5 46 42 41 C6 E0 41 94 8F D5 42 68 67 B3 3C D5 FC 4C 42 1F E2 7B 3E 20 28 A0 3E 63 DE 39 45 90 B8 00 45 5B 10 00 41 96 FE 3C 41 96 CA 27 00 00 00 00 00 00 00 00 5A 59 
10 03:46:54.670 G  TX 01 10 00 6E 00 46 20 26 
10 03:46:55.210 G  RX 01 03 00 00 00 10 44 06 
10 03:46:55.278 G  TX 01 03 20 00 00 00 00 40 80 00 00 C2 BC 00 00 00 00 00 00 00 00 00 00 C1 00 00 00 C3 11 00 00 00 00 00 00 E5 36 
10 03:46:55.416 G  RX 01 10 00 24 00 4A 94 00 00 00 00 00 00 00 00 44 F9 4A 51 44 F9 0D 48 44 FC 37 06 44 FA 52 CE 46 90 8F E6 46 8F 13 CF 42 BE 49 77 42 B5 93 B6 46 71 CB 67 42 F0 DF 97 42 F3 EE 72 42 E8 AA 4F 42 EA 1D 52 42 F1 EF 8E 41 0F 62 79 40 0A EC 75 3D 97 15 6A 41 E8 00 00 42 00 00 00 00 00 00 00 3C 8B 67 92 3E 8B CD 50 41 37 8B 11 41 42 DB E7 41 40 CD 38 41 44 BC A4 47 8A FD 80 43 50 E6 66 00 00 00 00 47 0F D1 DA 42 B9 CD F8 00 00 00 00 00 00 00 00 45 CD D6 70 45 CE 2E 54 B6 A3 
10 03:46:55.485 G  TX 01 10 00 24 00 4A 01 F5 
10 03:46:55.601 G  RX 01 10 00 6E 00 46 8C 00 00 00 00 3F 6F FD F3 3F 77 5C 65 3F 73 0B 18 3F 75 D1 29 00 00 00 00 43 3A 45 76 43 33 2D 07 43 39 44 4C 43 36 26 C2 00 00 00 00 45 CE 28 D6 45 CF A5 B4 45 CE DA 74 45 CE 93 0A 44 86 D9 C4 40 94 32 14 3D AA 93 55 3D A3 43 E6 3E 02 A5 9A 3E 1C 3B 91 42 FF 26 61 42 42 2F 0C 41 96 D7 2C 42 68 67 B3 3C CF 73 4F 42 1F E3 73 3E 15 BD EB 3E 84 29 D9 45 90 B8 00 45 5B 10 00 41 94 FF D0 41 93 D1 B9 00 00 00 00 00 00 00 00 02 95 
10 03:46:55.670 G  TX 01 10 00 6E 00 46 20 26 
10 03:46:56.211 G  RX 01 03 00 00 00 10 44 06 
10 03:46:56.280 G  TX 01 03 20 00 00 00 00 40 80 00 00 C2 BC 00 00 00 00 00 00 00 00 00 00 C1 00 00 00 C3 11 00 00 00 00 00 00 E5 36 
10 03:46:56.416 G  RX 01 10 00 24 00 4A 94 00 00 00 00 00 00 00 00 44 F9 52 74 44 F9 29 C3 44 FC 12 67 44 FA 2E 2F 46 90 8F E6 46 8F 13 CF 42 BE 3C 4D 42 B4 A7 18 46 71 CD 89 42 EF 4B 09 42 F4 3E 14 42 E9 07 0E 42 EC 0E 57 42 F1 E8 EC 41 0F 63 86 40 0A 57 B9 3D 97 02 7F 41 E8 00 00 42 00 00 00 00 00 00 00 3C 98 7A 97 3E 8B 04 93 41 37 78 C1 41 42 B9 65 41 40 ED E7 41 44 BD A9 47 8A FE 00 43 53 00 00 00 00 00 00 47 0F D1 DA 42 BD 6E 8F 00 00 00 00 00 00 00 00 45 CD D8 45 45 CE 1D DA 3A 82 
10 03:46:56.482 G  TX 01 10 00 24 00 4A 01 F5 
10 03:46:56.602 G  RX 01 10 00 6E 00 46 8C 00 00 00 00 3F 70 01 BF 3F 77 2D B0 3F 75 E9 72 3F 71 60 5E 00 00 00 00 43 3A 0E 1F 43 33 3D 4E 43 36 E6 D1 43 39 09 B3 00 00 00 00 45 CE 47 F7 45 CF A5 B4 45 CE F4 16 45 CE A5 5A 44 86 92 7A 40 AD 96 2E 3D 43 50 C3 3D A5 6A BF 3E 01 9C B4 3E 1A 77 C3 42 FF 81 87 42 42 56 1C 41 93 BF 7E 42 67 C1 08 3C C7 B5 38 42 1F EB 7C 3E 96 64 96 3E 93 C9 E9 45 90 B8 00 45 5B 10 00 41 95 5D 90 41 93 FB 64 00 00 00 00 00 00 00 00 16 63 
10 03:46:56.671 G  TX 01 10 00 6E 00 46 20 26 
10 03:46:57.211 G  RX 01 03 00 00 00 10 44 06 
10 03:46:57.279 G  TX 01 03 20 00 00 00 00 40 80 00 00 C2 BC 00 00 00 00 00 00 00 00 00 00 C1 00 00 00 C3 11 00 00 00 00 00 00 E5 36 
10 03:46:57.417 G  RX 01 10 00 24 00 4A 94 00 00 00 00 00 00 00 00 44 FD 53 DC 44 F9 15 6B 44 F8 41 D4 44 F9 C8 75 46 90 8F E6 46 8F 13 CF 42 BE 70 F4 42 B8 BC 65 46 71 CF AB 42 EF 51 AB 42 F4 0F A0 42 E8 82 90 42 EA AF 19 42 F2 10 BA 41 0F 62 97 3F 92 DE 7F 3D 9A AC 3A 41 E8 00 00 42 00 00 00 00 00 00 00 3C 7C A9 1C 3E 8B 04 93 41 37 97 7E 41 42 D9 0F 41 40 EF 39 41 44 7E 40 47 8A FE 80 43 4F CC CD 00 00 00 00 47 0F D1 DA 42 BA CC F4 00 00 00 00 00 00 00 00 45 CD CF 1D 45 CE 1C 05 D6 9D 
10 03:46:57.486 G  TX 01 10 00 24 00 4A 01 F5 
10 03:46:57.601 G  RX 01 10 00 6E 00 46 8C 00 00 00 00 3F 70 32 26 3F 77 0B 89 3F 76 0D B5 3F 71 40 7C 00 00 00 00 43 3A 11 60 43 33 43 D0 43 36 EA 13 43 39 85 67 00 00 00 00 45 CE 21 83 45 CF B0 B0 45 CF 11 62 45 CE A9 03 44 87 6C 41 40 B7 5A 37 3D 95 BD EB 3D A8 01 63 3E 01 50 34 3E 18 74 E4 42 FE F2 4C 42 43 19 6C 41 94 E3 2A 42 67 1A 5C 3C C0 C9 F5 42 1F EB 6E 3D AE 7B 59 3E 69 13 94 45 90 B8 00 45 5B 10 00 41 94 C1 4F 41 94 B6 E5 00 00 00 00 00 00 00 00 CF 53 
10 03:46:57.670 G  TX 01 10 00 6E 00 46 20 26 
10 03:46:58.208 G  RX 01 03 00 00 00 10 44 06 
10 03:46:58.277 G  TX 01 03 20 00 00 00 00 40 80 00 00 C2 BC 00 00 00 00 00 00 00 00 00 00 C1 00 00 00 C3 11 00 00 00 00 00 00 E5 36 
10 03:46:58.413 G  RX 01 10 00 24 00 4A 94 00 00 00 00 00 00 00 00 44 FD 7C 8D 44 F8 DC 73 44 F7 E8 4E 44 FA 09 90 46 90 8F E6 46 8F 13 CF 42 BE A5 9C 42 B4 E2 3F 46 71 D1 CD 42 EE 91 60 42 F4 2A 2B 42 E8 D2 0E 42 E9 77 AE 42 F1 92 AF 41 0E 91 D0 3F 91 54 C9 3D 90 31 C6 41 E8 00 00 42 00 00 00 00 00 00 00 3C 8B 67 92 3E 8A 3B D7 41 37 AF DC 41 42 D8 D6 41 40 A9 A5 41 44 7E 20 47 8A FF 00 43 4E CC CD 00 00 00 00 47 0F D1 DA 42 BC 00 4B 00 00 00 00 00 00 00 00 45 CD C9 9F 45 CE 18 5B 10 AF 
10 03:46:58.482 G  TX 01 10 00 24 00 4A 01 F5 
10 03:46:58.599 G  RX 01 10 00 6E 00 46 8C 00 00 00 00 3F 70 02 82 3F 77 0D D6 3F 75 CF B5 3F 71 25 F7 00 00 00 00 43 3D 28 67 43 33 40 8F 43 37 00 DC 43 39 95 AD 00 00 00 00 45 CE 2E 54 45 CF B2 85 45 CF 0D B9 45 CE 8F 61 44 87 0C 8D 40 98 1A 18 3D A0 28 A0 3D A5 8B 1B 3E 00 DC 14 3E 16 FB 2E 42 FE 63 10 42 42 CB 4C 41 94 12 D4 42 67 6D B2 3C C6 DF F0 42 1F E3 16 3E 73 7E 49 3E 93 C9 E9 45 90 B8 00 45 5B 10 00 41 95 EF 66 41 95 9C 10 00 00 00 00 00 00 00 00 AC B8 
10 03:46:58.667 G  TX 01 10 00 6E 00 46 20 26 
10 03:46:59.208 G  RX 01 03 00 00 00 10 44 06 
10 03:46:59.277 G  TX 01 03 20 00 00 00 00 40 80 00 00 C2 BC 00 00 00 00 00 00 00 00 00 00 C1 00 00 00 C3 11 00 00 00 00 00 00 E5 36 
10 03:46:59.413 G  RX 01 10 00 24 00 4A 94 00 00 00 00 00 00 00 00 44 FD 74 6A 44 F8 EC BA 44 F7 B7 7A 44 FC C9 83 46 90 8F E6 46 8F 13 CF 42 BD CC 6A 42 B4 4B 16 46 71 D3 EF 42 EF 80 16 42 F4 37 71 42 E8 9D 0F 42 EA F7 FE 42 F1 DB A8 41 10 37 E7 3F 8F FE 8B 3D 90 1E 82 41 E8 00 00 42 00 00 00 00 00 00 00 3C 98 7A 97 3E 8B CD 50 41 37 96 38 41 42 C7 BE 41 40 F7 EB 41 44 7F 8E 47 8A FF 80 43 4D 80 00 00 00 00 00 47 0F D1 DA 42 B9 3E 25 00 00 00 00 00 00 00 00 45 CD D0 F2 45 CE 23 58 25 79 
10 03:46:59.482 G  TX 01 10 00 24 00 4A 01 F5 
10 03:46:59.599 G  RX 01 10 00 6E 00 46 8C 00 00 00 00 3F 6F B1 93 3F 77 79 61 3F 72 89 74 3F 70 C7 FE 00 00 00 00 43 3D 8A 10 43 33 3A 0C 43 36 C6 44 43 39 88 A8 00 00 00 00 45 CE 2A AB 45 CF A0 35 45 CE EE 98 45 CE 9A 5D 44 87 28 DF 40 9B 08 1B 3D BF 68 BF 3D A0 73 CC 3E 00 28 FD 3E 18 31 B4 42 FE F8 CE 42 43 9B A2 41 95 60 2B 42 68 3E 08 3C D9 91 3C 42 1F DD 11 3E 2F C8 B0 3E 9B 99 F1 45 90 B8 00 45 5B 10 00 41 93 D1 B9 41 94 D6 25 00 00 00 00 00 00 00 00 FA 80 
10 03:46:59.668 G  TX 01 10 00 6E 00 46 20 26 
10 03:47:00.209 G  RX 01 03 00 00 00 10 44 06 
10 03:47:00.278 G  TX 01 03 20 00 00 00 00 40 80 00 00 C2 BC 00 00 00 00 00 00 00 00 00 00 C1 00 00 00 C3 11 00 00 00 00 00 00 E5 36 
10 03:47:00.415 G  RX 01 10 00 24 00 4A 94 00 00 00 00 00 00 00 00 44 FD 9D 1B 44 F9 0D 48 44 F7 BF 9E 44 FE 5C 5A 46 90 8F E6 46 8F 13 CF 42 BD D2 FF 42 B4 E8 D1 46 71 D6 11 42 F0 39 C7 42 F3 98 2E 42 E8 82 90 42 EA F7 FE 42 F2 45 CD 41 12 B5 86 40 07 03 CB 3D 5D 2C 2B 41 E8 00 00 42 00 00 00 00 00 00 00 3C 8B 67 92 3E 66 FC F6 41 37 92 65 41 42 F0 FD 41 40 FE 7C 41 44 83 79 47 8B 00 00 43 50 4C CD 00 00 00 00 47 0F D1 DA 42 BC 90 2C 00 00 00 00 00 00 00 00 45 CD EC 69 45 CE 27 01 D4 48 
10 03:47:00.483 G  TX 01 10 00 24 00 4A 01 F5 
10 03:47:00.601 G  RX 01 10 00 6E 00 46 8C 00 00 00 00 3F 6F 9C D4 3F 77 01 AC 3F 72 02 94 3F 70 A9 4E 00 00 00 00 43 3D 83 8D 43 33 57 58 43 36 EA 13 43 39 A9 35 C1 A7 16 17 45 CE 3C FB 45 CF BD 82 45 CE EE 98 45 CE C6 4F 44 86 F3 28 40 AD 96 2E 3D A0 28 A0 3D A1 79 79 3E 03 51 49 3E 19 D8 A4 42 FF 33 67 42 43 4D 82 41 92 48 7D 42 67 2F 32 3C E2 08 47 42 1F D4 4C 3E 25 5D FB 3E 6E 48 EE 45 90 B8 00 45 5B 10 00 41 96 F3 D2 41 93 FB 64 00 00 00 00 00 00 00 00 0C 2A 
10 03:47:00.669 G  TX 01 10 00 6E 00 46 20 26 
10 03:47:01.210 G  RX 01 03 00 00 00 10 44 06 
10 03:47:01.279 G  TX 01 03 20 00 00 00 00 40 80 00 00 C2 BC 00 00 00 00 00 00 00 00 00 00 C1 00 00 00 C3 11 00 00 00 00 00 00 E5 36 
10 03:47:01.415 G  RX 01 10 00 24 00 4A 94 00 00 00 00 00 00 00 00 44 FD 78 7B 44 F9 A7 E8 44 F7 E4 3D 44 FE 37 BA 46 90 8F E6 46 8F 13 CF 42 BE 77 89 42 B6 58 EA 46 71 D8 34 42 EF AE 82 42 F4 6C 88 42 E8 B7 8F 42 EB 26 61 42 F2 31 E6 41 14 5F 16 40 05 B6 68 3D 14 57 B0 41 E8 00 00 42 00 00 00 00 00 00 00 3C 8B 67 92 3E 49 30 F9 41 37 9B 5F 41 42 F7 10 41 40 D4 E0 41 44 5C B8 47 8B 00 80 43 52 80 00 00 00 00 00 47 0F D1 DA 42 BA 1C 6B 00 00 00 00 00 00 00 00 45 CD C7 CA 45 CE 1D DA 92 74 
10 03:47:01.483 G  TX 01 10 00 24 00 4A 01 F5 
10 03:47:01.600 G  RX 01 10 00 6E 00 46 8C 00 00 00 00 3F 6F CB 40 3F 77 8B A0 3F 71 C3 DA 3F 73 5E 20 00 00 00 00 43 3D 76 88 43 33 26 84 43 36 F7 18 43 39 B6 3B 00 00 00 00 45 CE 44 4E 45 CF A7 88 45 CE EC C3 45 CE AA D8 44 86 D1 F4 40 B7 5A 37 3D 38 E6 0E 3D A2 73 62 3E 04 56 FD 3E 1A 7E 2C 42 FE 35 7E 42 41 D3 E6 41 96 30 81 42 67 2F 32 3C DF 0C 1C 42 1F CC 7B 3E 3A 33 65 3E 73 7E 49 45 90 B8 00 45 5B 10 00 41 95 A6 7B 41 93 3F E3 00 00 00 00 00 00 00 00 A2 6E 
10 03:47:01.668 G  TX 01 10 00 6E 00 46 20 26 
10 03:47:02.211 G  RX 01 03 00 00 00 10 44 06 
10 03:47:02.280 G  TX 01 03 20 00 00 00 00 40 80 00 00 C2 BC 00 00 00 00 00 00 00 00 00 00 C1 00 00 00 C3 11 00 00 00 00 00 00 E5 36 
10 03:47:02.417 G  RX 01 10 00 24 00 4A 94 00 00 00 00 00 00 00 00 44 FD CD EF 44 FC 47 4D 44 F7 9F 10 44 FE AD BB 46 90 8F E6 46 8F 13 CF 42 BF 1C 18 42 B4 BA D0 46 71 DA 56 42 F1 28 8D 42 F4 73 2B 42 E8 96 70 42 EA 73 76 42 F2 9C 0C 41 13 90 87 40 44 B8 CE 3C C9 F9 C9 41 E8 00 00 42 00 00 00 00 00 00 00 3C 8B 67 92 3E A5 AD 9E 41 37 A1 BE 41 42 CE 05 41 40 D2 D9 41 44 72 93 47 8B 01 00 43 4F 66 66 00 00 00 00 47 0F D1 DA 42 BC D8 1E 00 00 00 00 00 00 00 00 45 CD D2 C7 45 CE 16 87 58 D7 
10 03:47:02.487 G  TX 01 10 00 24 00 4A 01 F5 
10 03:47:02.602 G  RX 01 10 00 6E 00 46 8C 00 00 00 00 3F 73 D7 5C 3F 79 77 81 3F 71 F4 B2 3F 75 15 A3 00 00 00 00 43 3A 45 76 43 32 FF 74 43 36 D6 8B 43 39 98 EF 00 00 00 00 45 CE 33 D3 45 CF 88 68 45 CE EE 98 45 CE 9F DB 44 87 23 FD 40 9B 08 1B 3D 8B 53 36 3D A2 53 BC 3E 04 27 10 3E 1B 53 5D 42 FE 42 83 42 42 E5 57 41 95 0C D5 42 66 DB DC 3C E0 A3 AB 42 1F D1 1F 3E 3F 68 BF 3E 49 D3 74 45 90 B8 00 45 5B 10 00 41 94 2F 7A 41 93 0B CE 00 00 00 00 00 00 00 00 78 26 
10 03:47:02.670 G  TX 01 10 00 6E 00 46 20 26 
10 03:47:03.212 G  RX 01 03 00 00 00 10 44 06 
10 03:47:03.280 G  TX 01 03 20 00 00 00 00 40 80 00 00 C2 BC 00 00 00 00 00 00 00 00 00 00 C1 00 00 00 C3 11 00 00 00 00 00 00 E5 36 
10 03:47:03.417 G  RX 01 10 00 24 00 4A 94 00 00 00 00 00 00 00 00 44 FD 84 B0 44 FC 5B A6 44 F7 AB 45 44 FE 6C A0 46 90 8F E6 46 8F 13 CF 42 BE 7E 1E 42 B4 BA D0 46 71 DC 78 42 EF 58 4D 42 F4 94 5A 42 E8 A3 AF 42 EA 52 54 42 F1 5D 9E 41 11 1A 00 40 82 1F 9E 3C C9 A3 41 41 E8 00 00 42 00 00 00 00 00 00 00 3C 8B 67 92 3E 83 F5 F3 41 37 C7 1B 41 42 D2 9D 41 41 04 F5 41 44 B4 5B 47 8B 01 80 43 4E 66 66 00 00 00 00 47 0F D1 DA 42 B9 DB 0B 00 00 00 00 00 00 00 00 45 CD CF 1D 45 CE 25 2D A6 45 
10 03:47:03.486 G  TX 01 10 00 24 00 4A 01 F5 
10 03:47:03.603 G  RX 01 10 00 6E 00 46 8C 00 00 00 00 3F 74 51 B6 3F 76 DF C9 3F 72 1A 88 3F 74 D8 7E 00 00 00 00 43 3A 11 60 43 35 CE DD 43 36 E0 4F 43 39 A5 F4 00 00 00 00 45 CE 4B A1 45 CF A9 5D 45 CE E1 C7 45 CE A7 2E 44 85 FA 21 40 A2 D8 23 3D 6C FB 98 3D A3 16 10 3E 02 EC D5 3E 1C C8 37 42 FF 67 7C 42 44 78 FE 41 93 42 7E 42 67 44 07 3C E0 65 D2 42 1F D8 3F 3D E2 90 E3 3E 89 5F 34 45 90 B8 00 45 5B 10 00 41 94 AC 7A 41 95 3E 50 00 00 00 00 00 00 00 00 11 C0 
10 03:47:03.672 G  TX 01 10 00 6E 00 46 20 26 
10 03:47:04.211 G  RX 01 03 00 00 00 10 44 06 
10 03:47:04.279 G  TX 01 03 20 00 00 00 00 40 80 00 00 C2 BC 00 00 00 00 00 00 00 00 00 00 C1 00 00 00 C3 11 00 00 00 00 00 00 E5 36 
10 03:47:04.416 G  RX 01 10 00 24 00 4A 94 00 00 00 00 00 00 00 00 44 FD B9 96 44 FC 53 82 44 F7 92 DB 44 FE 2F 97 46 90 8F E6 46 8F 13 CF 42 BE 2F 23 42 B4 E2 3F 46 71 DE 9A 42 F0 C5 0F 42 F4 58 9F 42 E8 46 F2 42 EB 2D 02 42 F1 9F F4 41 0F 77 9E 40 A1 A2 D7 3C 87 60 C1 41 E8 00 00 42 00 00 00 00 00 00 00 3C 8B 67 92 3E 82 64 79 41 37 C6 6A 41 42 FE 1C 41 40 D7 97 41 44 C4 70 47 8B 02 00 43 4D 80 00 00 00 00 00 47 0F D1 DA 42 BB 7D 81 00 00 00 00 00 00 00 00 45 CD DB EE 45 CE 46 22 7F 30 
10 03:47:04.485 G  TX 01 10 00 24 00 4A 01 F5 
10 03:47:04.601 G  RX 01 10 00 6E 00 46 8C 00 00 00 00 3F 74 05 5B 3F 77 05 BC 3F 71 F0 E5 3F 75 21 1A 00 00 00 00 43 3A 31 EE 43 35 D2 1F 43 36 C3 02 43 39 B6 3B 00 00 00 00 45 CE 2C 80 45 CF A3 DF 45 CE EC C3 45 CE B7 A9 44 86 72 40 40 B5 66 35 3D 6C FB 98 3D A2 4B 6F 3E 00 C2 39 3E 1D F3 26 42 FF 6D FF 42 41 78 C0 41 93 42 7E 42 68 29 33 3C D2 A0 38 42 1F DF 04 3D CD BB 78 3E 9B 99 F1 45 90 B8 00 45 5B 10 00 41 96 FE 3C 41 97 ED D3 00 00 00 00 00 00 00 00 60 1B 
10 03:47:04.669 G  TX 01 10 00 6E 00 46 20 26 
10 03:47:05.210 G  RX 01 03 00 00 00 10 44 06 
10 03:47:05.279 G  TX 01 03 20 00 00 00 00 40 80 00 00 C2 BC 00 00 00 00 00 00 00 00 00 00 C1 00 00 00 C3 11 00 00 00 00 00 00 E5 36 
10 03:47:05.416 G  RX 01 10 00 24 00 4A 94 00 00 00 00 00 00 00 00 44 FD 94 F7 44 FC 74 10 44 F4 69 1C 44 FE 43 F0 46 90 8F E6 46 8F 13 CF 42 BE 1B 64 42 B6 4B C4 46 71 E0 BC 42 F0 C5 0F 42 F4 37 71 42 E8 AA 4F 42 EC 2F 7B 42 F1 2F 2F 41 0D D3 25 40 A1 59 44 3C 36 A5 23 41 E8 00 00 42 00 00 00 00 00 00 00 3C 8B 67 92 3E 81 9B BD 41 37 93 B8 41 42 DB CC 41 40 D3 9E 41 44 B9 B1 47 8B 02 80 43 4C 80 00 00 00 00 00 47 0F D1 DA 42 BB 49 30 00 00 00 00 00 00 00 00 45 CD C4 21 45 CE 21 83 29 75 
10 03:47:05.484 G  TX 01 10 00 24 00 4A 01 F5 
10 03:47:05.602 G  RX 01 10 00 6E 00 46 8C 00 00 00 00 3F 74 33 CC 3F 76 88 71 3F 72 39 12 3F 75 34 7D 00 00 00 00 43 3A 2B 6B 43 36 13 3A 43 36 A5 B6 43 39 95 AD 00 00 00 00 45 CE 37 7C 45 CF C3 00 45 CE DA 74 45 CE 96 B4 44 86 70 4C 40 B5 66 35 3D AA 93 55 3D A0 A8 66 3D FD 4D 47 3E 1F 07 55 42 FF 4D 71 42 40 19 2F 41 96 83 D7 42 69 38 09 3C CB 97 89 42 1F E4 24 3E 20 28 A0 3E 69 13 94 45 90 B8 00 45 5B 10 00 41 93 C7 4E 41 95 7C D0 00 00 00 00 00 00 00 00 6D D5 
10 03:47:05.670 G  TX 01 10 00 6E 00 46 20 26 
10 03:47:06.212 G  RX 01 03 00 00 00 10 44 06 
10 03:47:06.281 G  TX 01 03 20 00 00 00 00 40 80 00 00 C2 BA 00 00 00 00 00 00 00 00 00 00 C1 00 00 00 C3 11 00 00 00 00 00 00 4E BC 
10 03:47:06.418 G  RX 01 10 00 24 00 4A 94 00 00 00 00 00 00 00 00 44 FD 94 F7 44 FC 57 94 44 F4 2C 13 44 FE 60 6B 46 90 8F E6 46 8F 13 CF 42 BD A4 ED 42 B6 45 31 46 71 E2 DE 42 EF D6 4C 42 F4 30 CE 42 E8 96 70 42 EB 5B 66 42 F1 E8 EC 41 0C 2F 36 40 81 01 CD BB A1 FA 98 41 E8 00 00 42 00 00 00 00 00 00 00 3C 8B 67 92 3E 81 9B BD 41 37 76 6C 41 42 EA FE 41 41 05 7E 41 44 9E F2 47 8B 03 00 43 51 19 9A 00 00 00 00 47 0F D1 DA 42 BC 62 64 00 00 00 00 00 00 00 00 45 CD BC CE 45 CE 27 01 C0 74 
10 03:47:06.487 G  TX 01 10 00 24 00 4A 01 F5 
10 03:47:06.603 G  RX 01 10 00 6E 00 46 8C 00 00 00 00 3F 6F E3 15 3F 76 E4 8C 3F 76 69 BC 3F 74 FB B3 00 00 00 00 43 3D 6C C4 43 35 EC 2A 43 33 61 1C 43 39 8B E9 00 00 00 00 45 CE 33 D3 45 CF A2 0A 45 CE F5 EB 45 CE 9F DB 44 85 E0 BD 40 A3 D2 24 3D A5 5D FB 3D 9E D5 B8 3E 01 DD D1 3E 1E D6 C7 42 FE 76 98 42 44 FB 34 41 92 EF 28 42 67 6D B2 3C CD A2 96 42 1F E0 11 3D E2 90 E3 3E 98 FF 44 45 90 B8 00 45 5B 10 00 41 95 9C 10 41 94 1A A4 00 00 00 00 00 00 00 00 BD A5 
10 03:47:06.672 G  TX 01 10 00 6E 00 46 20 26 
10 03:47:07.213 G  RX 01 03 00 00 00 10 44 06 
10 03:47:07.283 G  TX 01 03 20 00 00 00 00 40 80 00 00 C2 BA 00 00 00 00 00 00 00 00 00 00 C1 00 00 00 C3 11 00 00 00 00 00 00 4E BC 
10 03:47:07.418 G  RX 01 10 00 24 00 4A 94 00 00 00 00 00 00 00 00 44 FD 80 9F 44 FC 3F 2A 44 F4 48 8F 44 FE 1B 3F 46 90 8F E6 46 8F 13 CF 42 BE 3C 4D 42 B3 CE 3A 46 71 E5 00 42 F0 40 69 42 F4 4B 5A 42 E8 CB 6F 42 EA 80 B7 42 F1 43 16 41 08 0F F7 40 41 C0 E9 BB A3 5A 39 41 E8 00 00 42 00 00 00 00 00 00 00 3C 8B 67 92 3E 81 9B BD 41 37 B2 17 41 42 E9 F1 41 40 EC 99 41 44 66 8F 47 8B 03 80 43 4F CC CD 00 00 00 00 47 0F D1 DA 42 B8 D5 8F 00 00 00 00 00 00 00 00 45 CD C5 F5 45 CE 0B 8A 93 D5 
10 03:47:07.486 G  TX 01 10 00 24 00 4A 01 F5 
10 03:47:07.604 G  RX 01 10 00 6E 00 46 8C 00 00 00 00 3F 6F F2 02 3F 78 D4 E4 3F 72 F8 68 3F 74 CA 68 00 00 00 00 43 3D 6C C4 43 34 B3 A8 43 33 A5 79 43 39 B2 F9 00 00 00 00 45 CE 27 01 45 CF CF D1 45 CE E7 45 45 CE AE 81 44 86 59 D6 40 A1 DE 22 3D 6C FB 98 3D 9D 36 1B 3E 01 B3 4A 3E 1D B1 AF 42 FE DE C4 42 44 10 D3 41 94 E3 2A 42 67 82 88 3C C5 37 B4 42 1F DD 3D 3D E2 90 E3 3E 96 64 96 45 90 B8 00 45 5B 10 00 41 95 33 E5 41 96 61 FC 00 00 00 00 00 00 00 00 10 93 
10 03:47:07.672 G  TX 01 10 00 6E 00 46 20 26 
10 03:47:08.212 G  RX 01 03 00 00 00 10 44 06 
10 03:47:08.280 G  TX 01 03 20 00 00 00 00 40 80 00 00 C2 BA 00 00 00 00 00 00 00 00 00 00 C1 00 00 00 C3 11 00 00 00 00 00 00 4E BC 
10 03:47:08.418 G  RX 01 10 00 24 00 4A 94 00 00 00 00 00 00 00 00 44 FD 99 09 44 FC 78 21 44 F4 79 63 44 FE 2F 97 46 90 8F E6 46 8F 13 CF 42 BE 28 8E 42 B5 D5 71 46 71 E7 22 42 F0 BE 6D 42 F4 30 CE 42 E8 C4 CF 42 EA BC 5A 42 F1 C1 1F 41 06 6C 37 40 41 60 56 BC 84 34 7F 41 E8 00 00 42 00 00 00 00 00 00 00 3C 8B 67 92 3E 81 9B BD 41 37 B3 29 41 42 ED 45 41 40 BB E9 41 43 F8 AE 47 8B 04 00 43 52 33 33 00 00 00 00 47 0F D1 DA 42 BD CA 23 00 00 00 00 00 00 00 00 45 CD B5 7B 45 CE 2A AB 36 09 
10 03:47:08.488 G  TX 01 10 00 24 00 4A 01 F5 
10 03:47:08.603 G  RX 01 10 00 6E 00 46 8C 00 00 00 00 3F 6F 5F 37 3F 7A 88 55 3F 73 04 72 3F 71 91 21 00 00 00 00 43 3D A0 D9 43 33 3D 4E 43 33 6E 22 43 3C 54 D0 00 00 00 00 45 CE 5C 1B 45 CF A3 DF 45 CE E9 1A 45 CE 9A 5D 44 86 44 5A 40 B5 66 35 3D 6C FB 98 3D 9C 0E 9A 3E 01 BD D2 3E 1B CF 31 42 FF 53 F4 42 43 9B A2 41 94 3C 7F 42 67 97 5D 3C C4 71 D5 42 1F DE 85 3E 54 3E 2A 3E 6E 48 EE 45 90 B8 00 45 5B 10 00 41 95 87 3B 41 95 F9 D1 00 00 00 00 00 00 00 00 B4 67 
10 03:47:08.672 G  TX 01 10 00 6E 00 46 20 26 
10 03:47:09.212 G  RX 01 03 00 00 00 10 44 06 
10 03:47:09.282 G  TX 01 03 20 00 00 00 00 40 80 00 00 C2 BA 00 00 00 00 00 00 00 00 00 00 C1 00 00 00 C3 11 00 00 00 00 00 00 4E BC 
10 03:47:09.417 G  RX 01 10 00 24 00 4A 94 00 00 00 00 00 00 00 00 44 FD 7C 8D 44 FC 63 C9 44 F4 58 D6 44 FE 74 C4 46 90 8F E6 46 8F 13 CF 42 BE 3C 4D 42 B5 23 F9 46 71 E9 45 42 EF 4B 09 42 F4 44 B7 42 E8 B7 8F 42 EA 23 F2 42 F1 50 5A 41 02 4F D6 40 80 80 7F BC 8E A1 DD 41 E8 00 00 42 00 00 00 00 00 00 00 3C 7C A9 1C 3E 81 9B BD 41 37 98 22 41 42 C5 27 41 40 E8 53 41 44 53 08 47 8B 04 80 43 52 80 00 00 00 00 00 47 0F D1 DA 42 BD D0 AE 00 00 00 00 00 00 00 00 45 CD C4 21 45 CE 12 DD 5C 5D 
10 03:47:09.486 G  TX 01 10 00 24 00 4A 01 F5 
10 03:47:09.603 G  RX 01 10 00 6E 00 46 8C 00 00 00 00 3F 6F BE A1 3F 7A 8C 0B 3F 73 4F 50 3F 70 9C BC 00 00 00 00 43 3D 70 05 43 33 23 43 43 33 47 12 43 3C E4 0B 00 00 00 00 45 CE 52 F4 45 CF A7 88 45 CE EE 98 45 CE 96 B4 44 86 44 5A 40 B7 5A 37 3D BF 68 BF 3D 9E E3 DB 3E 03 AA 8F 3E 18 F7 A9 42 FE 76 98 42 44 AD 13 41 94 8F D5 42 68 67 B3 3C CA F3 5E 42 1F DB DE 3E 1A F3 46 3E 93 C9 E9 45 90 B8 00 45 5B 10 00 41 95 DA 91 41 94 F5 65 00 00 00 00 00 00 00 00 6A F5 
10 03:47:09.672 G  TX 01 10 00 6E 00 46 20 26 
10 03:47:10.214 G  RX 01 03 00 00 00 10 44 06 
10 03:47:10.283 G  TX 01 03 20 00 00 00 00 40 80 00 00 C2 BA 00 00 00 00 00 00 00 00 00 00 C1 00 00 00 C3 11 00 00 00 00 00 00 4E BC 
10 03:47:10.420 G  RX 01 10 00 24 00 4A 94 00 00 00 00 00 00 00 00 44 FD 74 6A 44 FC 4B 5F 44 F4 65 0B 44 FE 48 01 46 90 8F E6 46 8F 13 CF 42 BD 69 B2 42 B3 F5 A8 46 71 EB 67 42 F1 2F 2F 42 F4 30 CE 42 E7 F7 75 42 E9 28 2E 42 F1 CE 63 41 02 50 A1 40 80 52 24 BC C9 F1 37 41 E8 00 00 42 00 00 00 00 00 00 00 3C 8B 67 92 3E 80 D3 00 41 37 D6 57 41 42 E9 EE 41 40 F5 42 41 44 89 8E 47 8B 05 00 43 52 B3 33 00 00 00 00 47 0F D1 DA 42 BC 68 EF 00 00 00 00 00 00 00 00 45 CD D6 70 45 CE 23 58 BE E0 
10 03:47:10.489 G  TX 01 10 00 24 00 4A 01 F5 
10 03:47:10.606 G  RX 01 10 00 6E 00 46 8C 00 00 00 00 3F 6F C4 09 3F 7A 7F 48 3F 73 67 B3 3F 70 6E DC 00 00 00 00 43 3D 79 C9 43 33 4A 53 43 33 57 58 43 3C FE 16 00 00 00 00 45 CE 2C 80 45 CF AD 07 45 CE F0 6D 45 CE B2 2B 44 86 68 7C 40 9C FC 1D 3D 62 90 E3 3D A3 C0 DB 3E 02 55 27 3E 16 5C 83 42 FE 69 93 42 43 F6 C8 41 94 8F D5 42 68 E4 B4 3C C9 43 8B 42 1F E1 D2 3D F7 66 4D 3E 9E 34 9E 45 90 B8 00 45 5B 10 00 41 93 9D A4 41 95 7C D0 00 00 00 00 00 00 00 00 F2 63 
10 03:47:10.675 G  TX 01 10 00 6E 00 46 20 26 
10 03:47:11.214 G  RX 01 03 00 00 00 10 44 06 
10 03:47:11.283 G  TX 01 03 20 00 00 00 00 40 80 00 00 C2 BA 00 00 00 00 00 00 00 00 00 00 C1 00 00 00 C3 11 00 00 00 00 00 00 4E BC 
10 03:47:11.420 G  RX 01 10 00 24 00 4A 94 00 00 00 00 00 00 00 00 44 FD 80 9F 44 FC 8C 7A 44 F4 3C 5A 44 FE 48 01 46 90 8F E6 46 8F 13 CF 42 BE 49 77 42 B8 A2 17 46 71 ED 89 42 EE F4 D5 42 F4 02 5A 42 E8 D8 AE 42 EA 66 35 42 F2 03 75 41 00 AA 8C 40 80 1D 4D BC CA 39 6A 41 E8 00 00 42 00 00 00 00 00 00 00 3C 8B 67 92 3E 80 D3 00 41 37 B6 B2 41 42 F3 64 41 40 C8 89 41 44 C1 9C 47 8B 05 80 43 58 19 9A 00 00 00 00 47 0F D1 DA 42 BC CB 0A 00 00 00 00 00 00 00 00 45 CD CB 74 45 CE 1F AE 5F 3D 
10 03:47:11.489 G  TX 01 10 00 24 00 4A 01 F5 
10 03:47:11.606 G  RX 01 10 00 6E 00 46 8C 00 00 00 00 3F 6F BC 9E 3F 7A A8 94 3F 73 4C 0A 3F 70 BF 58 00 00 00 00 43 3D 80 4C 43 33 26 84 43 33 4A 53 43 3D 01 57 00 00 00 00 45 CE 25 2D 45 CF A0 35 45 CE FB 69 45 CE A1 B0 44 86 D7 D0 40 93 38 13 3D AF C8 B0 3D A6 9D DC 3E 01 0F 34 3E 15 3F 60 42 FE EB C9 42 44 78 FE 41 92 9B D3 42 6B D2 B6 3C C5 4A 4E 42 1F F0 CB 3E 20 28 A0 3E 78 B3 A3 45 90 B8 00 45 5B 10 00 41 94 A2 0F 41 95 C5 BB 00 00 00 00 00 00 00 00 66 5A 
10 03:47:11.675 G  TX 01 10 00 6E 00 46 20 26 
10 03:47:12.216 G  RX 01 03 00 00 00 10 44 06 
10 03:47:12.285 G  TX 01 03 20 00 00 00 00 40 80 00 00 C2 BA 00 00 00 00 00 00 00 00 00 00 C1 00 00 00 C3 11 00 00 00 00 00 00 4E BC 
10 03:47:12.423 G  RX 01 10 00 24 00 4A 94 00 00 00 00 00 00 00 00 44 FD 74 6A 44 FC 88 68 44 F4 CA C5 44 FE D2 5A 46 90 8F E6 46 8F 13 CF 42 BE 77 89 42 B3 D4 CC 46 71 EF AB 42 F1 14 A7 42 F4 37 71 42 E8 F9 CE 42 E9 92 2F 42 F1 C1 1F 41 03 20 A1 40 00 1F 55 BD 11 9E 13 41 E8 00 00 42 00 00 00 00 00 00 00 3C 8B 67 92 3E 80 D3 00 41 37 9F 81 41 42 B9 18 41 40 C4 6C 41 44 C2 E7 47 8B 06 00 43 55 33 33 00 00 00 00 47 0F D1 DA 42 BA 57 43 00 00 00 00 00 00 00 00 45 CD C2 4C 45 CE 25 2D 55 7E 
10 03:47:12.491 G  TX 01 10 00 24 00 4A 01 F5 
10 03:47:12.608 G  RX 01 10 00 6E 00 46 8C 00 00 00 00 3F 6F E3 28 3F 76 D1 95 3F 73 7D 25 3F 70 9D 66 00 00 00 00 43 3D 70 05 43 35 E2 66 43 33 40 8F 43 3C FE 16 00 00 00 00 45 CE 1F AE 45 CF A5 B4 45 CE E7 45 45 CE 9E 07 44 87 49 19 40 B8 54 38 3D 77 66 4D 3D A6 F8 E2 3E 01 5E CB 3E 16 63 BA 43 00 7A 50 42 44 10 D3 41 93 BF 7E 42 67 EA B3 3C CA 6E C1 42 1F FA 0B 3E 15 BD EB 3E 8B F9 E1 45 90 B8 00 45 5B 10 00 41 94 8D 3A 41 94 EA FA 00 00 00 00 00 00 00 00 19 0B 
10 03:47:12.677 G  TX 01 10 00 6E 00 46 20 26 
10 03:47:13.217 G  RX 01 03 00 00 00 10 44 06 
10 03:47:13.285 G  TX 01 03 20 00 00 00 00 40 80 00 00 C2 BA 00 00 00 00 00 00 00 00 00 00 C1 00 00 00 C3 11 00 00 00 00 00 00 4E BC 
10 03:47:13.422 G  RX 01 10 00 24 00 4A 94 00 00 00 00 00 00 00 00 44 FD 94 F7 44 FC 7C 33 44 F5 07 CE 44 FE 95 51 46 90 8F E6 46 8F 13 CF 42 BE 42 E2 42 B6 C8 AC 46 71 F1 CD 42 EF 6C 31 42 F3 E7 CF 42 E8 7B F0 42 EA 3E 73 42 F1 B3 DA 41 08 12 47 40 00 06 71 BD 4A 67 1C 41 E8 00 00 42 00 00 00 00 00 00 00 3C 8B 67 92 3E 81 9B BD 41 37 6D 13 41 42 DC 55 41 40 FF 80 41 44 CE 5B 47 8B 06 80 43 55 19 9A 00 00 00 00 47 0F D1 DA 42 B9 FB BB 00 00 00 00 00 00 00 00 45 CD C5 F5 45 CE 2E 54 E8 C1 
10 03:47:13.491 G  TX 01 10 00 24 00 4A 01 F5 
10 03:47:13.608 G  RX 01 10 00 6E 00 46 8C 00 00 00 00 3F 6F A9 BD 3F 76 CD F9 3F 73 1E 20 3F 74 B6 9B 00 00 00 00 43 3D 86 CF 43 35 E2 66 43 33 54 17 43 39 BC BD 00 00 00 00 45 CE 2E 54 45 CF A2 0A 45 CE FF 13 45 CE B7 A9 44 86 D6 D6 40 B6 60 36 3D 90 88 91 3D A5 DE AE 3E 04 39 13 3E 17 FE 76 43 00 A7 E3 42 42 F2 5C 41 93 95 D4 42 68 52 DE 3C C8 0D 19 42 1F F7 BD 3E 2F C8 B0 3E 78 B3 A3 45 90 B8 00 45 5B 10 00 41 94 F5 65 41 95 B0 E6 00 00 00 00 00 00 00 00 7D C6 
10 03:47:13.677 G  TX 01 10 00 6E 00 46 20 26 
10 03:47:14.217 G  RX 01 03 00 00 00 10 44 06 
10 03:47:14.285 G  TX 01 03 20 00 00 00 00 40 80 00 00 C2 BA 00 00 00 00 00 00 00 00 00 00 C1 00 00 00 C3 11 00 00 00 00 00 00 4E BC 
10 03:47:14.423 G  RX 01 10 00 24 00 4A 94 00 00 00 00 00 00 00 00 44 FD 94 F7 44 FC 5B A6 44 F4 B2 5B 44 FD FA B1 46 90 8F E6 46 8F 13 CF 42 BE 6A 5F 42 B4 99 F3 46 71 F3 EF 42 EF 3D C6 42 F3 B9 5C 42 E8 AA 4F 42 EA 02 D1 42 F1 9F F4 41 0D 02 05 3F FF 5C FB BD 57 91 34 41 E8 00 00 42 00 00 00 00 00 00 00 3C 8B 67 92 3E 81 9B BD 41 37 97 12 41 42 DF 65 41 40 CE 8C 41 44 6B C4 47 8B 07 00 43 52 CC CD 00 00 00 00 47 0F D1 DA 42 BA 5D CD 00 00 00 00 00 00 00 00 45 CD E5 16 45 CE 2E 54 FB F1 
10 03:47:14.491 G  TX 01 10 00 24 00 4A 01 F5 
10 03:47:14.608 G  RX 01 10 00 6E 00 46 8C 00 00 00 00 3F 6F FA 41 3F 76 A9 2D 3F 73 74 05 3F 75 35 54 00 00 00 00 43 3D 66 41 43 35 FC 70 43 33 50 D6 43 39 C3 40 00 00 00 00 45 CE 27 01 45 CF B0 B0 45 CF 32 58 45 CE B5 D5 44 86 B9 8A 40 A3 D2 24 3D D4 3E 2A 3D A9 D2 44 3E 05 AE 06 3E 18 BA A8 43 00 2F 71 42 42 8A 31 41 94 66 2A 42 68 52 DE 3C D1 21 E3 42 1F F0 95 3D EC FB 98 3E 91 2F 3C 45 90 B8 00 45 5B 10 00 41 95 14 A5 41 93 01 63 00 00 00 00 00 00 00 00 50 E3 
10 03:47:14.676 G  TX 01 10 00 6E 00 46 20 26 
10 03:47:15.216 G  RX 01 03 00 00 00 10 44 06 
10 03:47:15.284 G  TX 01 03 20 00 00 00 00 40 80 00 00 C2 BA 00 00 00 00 00 00 00 00 00 00 C1 00 00 00 C3 11 00 00 00 00 00 00 4E BC 
10 03:47:15.422 G  RX 01 10 00 24 00 4A 94 00 00 00 00 00 00 00 00 44 FD A1 2C 44 FC 63 C9 44 F4 69 1C 44 FE 43 F0 46 90 8F E6 46 8F 13 CF 42 BD A4 ED 42 B8 A2 17 46 71 F6 11 42 F0 1F 40 42 F4 3E 14 42 E9 1A EE 42 EB C5 70 42 F2 60 56 41 11 1E A1 3F FD E5 45 BD 57 A5 B2 41 E8 00 00 42 00 00 00 00 00 00 00 3C 8B 67 92 3E 81 9B BD 41 37 C0 BD 41 42 DD 0D 41 40 D4 E0 41 44 82 1F 47 8B 07 80 43 53 19 9A 00 00 00 00 47 0F D1 DA 42 BB F3 37 00 00 00 00 00 00 00 00 45 CD E5 16 45 CE 28 D6 1B BA 
10 03:47:15.491 G  TX 01 10 00 24 00 4A 01 F5 
10 03:47:15.608 G  RX 01 10 00 6E 00 46 8C 00 00 00 00 3F 6F E3 A5 3F 77 50 7E 3F 73 AF 0A 3F 71 FC 4E 00 00 00 00 43 3D 79 C9 43 35 CB 9C 43 33 81 AA 43 3C 37 84 00 00 00 00 45 CE 25 2D 45 CF A2 0A 45 CE FB 69 45 CE 89 E2 44 86 9A 4A 40 A3 D2 24 3D 90 88 91 3D AA 83 E8 3E 05 8D F6 3E 18 85 62 43 00 C5 2F 42 43 A8 A8 41 94 12 D4 42 67 2F 32 3C D5 85 9C 42 1F EC 43 3D F7 66 4D 3E 69 13 94 45 90 B8 00 45 5B 10 00 41 96 19 11 41 94 10 39 00 00 00 00 00 00 00 00 A8 A0 
10 03:47:15.677 G  TX 01 10 00 6E 00 46 20 26 
10 03:47:16.219 G  RX 01 03 00 00 00 10 44 06 
10 03:47:16.287 G  TX 01 03 20 00 00 00 00 40 80 00 00 C2 BA 00 00 00 00 00 00 00 00 00 00 C1 00 00 00 C3 11 00 00 00 00 00 00 4E BC 
10 03:47:16.425 G  RX 01 10 00 24 00 4A 94 00 00 00 00 00 00 00 00 44 FD B9 96 44 FC 63 C9 44 F4 79 63 44 FE 8D 2E 46 90 8F E6 46 8F 13 CF 42 BD BF 40 42 B4 F5 F7 46 71 F8 33 42 EE 76 DA 42 F4 80 71 42 E9 21 8E 42 EA 66 35 42 F2 59 B4 41 11 F1 84 40 3E DB E4 BD 46 DC CE 41 E8 00 00 42 00 00 00 00 00 00 00 3C 8B 67 92 3E 81 9B BD 41 37 C6 42 41 42 C3 1D 41 40 F7 A0 41 44 8F 63 47 8B 08 00 43 53 33 33 00 00 00 00 47 0F D1 DA 42 BC A3 CB 00 00 00 00 00 00 00 00 45 CD E8 C0 45 CE 2C 80 2B 6A 
10 03:47:16.493 G  TX 01 10 00 24 00 4A 01 F5 
10 03:47:16.611 G  RX 01 10 00 6E 00 46 8C 00 00 00 00 3F 6F CF F1 3F 77 08 D6 3F 73 6F EA 3F 70 4B 9B 00 00 00 00 43 3D 8A 10 43 35 D8 A2 43 33 77 E6 43 3C FA D5 00 00 00 00 45 CE 2E 54 45 CF A3 DF 45 CE F4 16 45 CE A9 03 44 87 45 31 40 B5 66 35 3D 77 66 4D 3D A9 BB D6 3E 04 B0 C3 3E 19 2A 7A 43 00 B1 A7 42 44 51 EE 41 95 0C D5 42 68 A6 33 3C CD 5B 83 42 1F E0 7C 3E 15 BD EB 3E 84 29 D9 45 90 B8 00 45 5B 10 00 41 94 39 E4 41 93 B2 79 00 00 00 00 00 00 00 00 1A 71 
10 03:47:16.680 G  TX 01 10 00 6E 00 46 20 26 
10 03:47:17.219 G  RX 01 03 00 00 00 10 44 06 
10 03:47:17.287 G  TX 01 03 20 00 00 00 00 40 80 00 00 C2 BA 00 00 00 00 00 00 00 00 00 00 C1 00 00 00 C3 11 00 00 00 00 00 00 4E BC 
10 03:47:17.424 G  RX 01 10 00 24 00 4A 94 00 00 00 00 00 00 00 00 44 FD 68 35 44 FC 47 4D 44 F4 AE 49 44 FE 2F 97 46 90 8F E6 46 8F 13 CF 42 BD 9E 58 42 B3 6B A9 46 71 FA 56 42 EF 72 D3 42 F4 73 2B 42 E8 40 52 42 EB 54 C5 42 F2 24 A1 41 11 1F 77 40 7E BB 5A BD 3B AA F0 41 E8 00 00 42 00 00 00 00 00 00 00 3C 8B 67 92 3E 80 D3 00 41 37 A6 09 41 42 F1 09 41 40 F3 B2 41 44 9C 4A 47 8B 08 80 43 51 33 33 00 00 00 00 47 0F D1 DA 42 B8 A1 44 00 00 00 00 00 00 00 00 45 CD F1 E8 45 CE 2C 80 E1 8C 
10 03:47:17.493 G  TX 01 10 00 24 00 4A 01 F5 
10 03:47:17.610 G  RX 01 10 00 6E 00 46 8C 00 00 00 00 3F 6F EB 91 3F 77 34 9C 3F 73 0F 2C 3F 70 9C FC 00 00 00 00 43 3D 90 93 43 35 CB 9C 43 33 7E 68 43 3C E7 4D 00 00 00 00 45 CE 23 58 45 CF A2 0A 45 CF 00 E8 45 CE B4 00 44 87 4B 0D 40 B6 60 36 3D 38 E6 0E 3D A8 85 BE 3E 04 6A BE 3E 19 25 EB 43 00 BB 6B 42 43 0C 67 41 93 6C 29 42 69 38 09 3C C4 BF B9 42 1F CE 86 3E 1A F3 46 3E 89 5F 34 45 90 B8 00 45 5B 10 00 41 94 FF D0 41 93 69 8E 00 00 00 00 00 00 00 00 66 5B 
10 03:47:17.678 G  TX 01 10 00 6E 00 46 20 26 
10 03:47:18.220 G  RX 01 03 00 00 00 10 44 06 
10 03:47:18.290 G  TX 01 03 20 00 00 00 00 40 80 00 00 C2 BA 00 00 00 00 00 00 00 00 00 00 C1 00 00 00 C3 11 00 00 00 00 00 00 4E BC 
10 03:47:18.425 G  RX 01 10 00 24 00 4A 94 00 00 00 00 00 00 00 00 44 FD 9D 1B 44 FC 57 94 44 F4 85 98 44 FE 37 BA 46 90 8F E6 46 8F 13 CF 42 BE CD 1B 42 B6 58 EA 46 71 FC 78 42 EF 37 25 42 F3 D3 E7 42 E8 68 11 42 EA C9 9B 42 F1 EF 8E 41 11 1B D5 40 7E 8F 0A BD 00 17 91 41 E8 00 00 42 00 00 00 00 00 00 00 3C 8B 67 92 3E 80 D3 00 41 37 96 E7 41 42 BF B0 41 40 C4 84 41 44 C4 9F 47 8B 09 00 43 51 B3 33 00 00 00 00 47 0F D1 DA 42 BA 4A 30 00 00 00 00 00 00 00 00 45 CD BE A2 45 CE 1F AE A9 17 
10 03:47:18.494 G  TX 01 10 00 24 00 4A 01 F5 
10 03:47:18.610 G  RX 01 10 00 6E 00 46 8C 00 00 00 00 3F 6F B2 EB 3F 76 B1 31 3F 72 E3 D7 3F 70 E1 00 00 00 00 00 43 3D 79 C9 43 35 F9 2F 43 33 AB FB 43 3C FE 16 00 00 00 00 45 CE 2A AB 45 CF B4 5A 45 CE FF 13 45 CE 9C 32 44 87 10 75 40 99 14 19 3D BF 68 BF 3D A5 CF 72 3E 06 73 10 3E 19 4C 14 43 00 B4 E8 42 42 F2 5C 41 93 BF 7E 42 67 2F 32 3C BD 2B 48 42 1F CE 00 3E 06 1D DB 3E 86 C4 87 45 90 B8 00 45 5B 10 00 41 93 F0 F9 41 94 4E BA 00 00 00 00 00 00 00 00 33 F0 
10 03:47:18.678 G  TX 01 10 00 6E 00 46 20 26 
10 03:47:19.220 G  RX 01 03 00 00 00 10 44 06 
10 03:47:19.288 G  TX 01 03 20 00 00 00 00 40 80 00 00 C2 BA 00 00 00 00 00 00 00 00 00 00 C1 00 00 00 C3 11 00 00 00 00 00 00 4E BC 
10 03:47:19.425 G  RX 01 10 00 24 00 4A 94 00 00 00 00 00 00 00 00 44 FD 99 09 44 FC 57 94 44 F4 60 F9 44 FE 4C 13 46 90 8F E6 46 8F 13 CF 42 BD AB 82 42 B4 93 61 46 71 FE 9A 42 EF 65 90 42 F4 37 71 42 E8 BE 2F 42 E9 B9 EF 42 F2 03 75 41 11 ED A1 40 7E 1F EA BD 00 27 41 41 E8 00 00 42 00 00 00 00 00 00 00 3C 98 7A 97 3E 80 D3 00 41 37 8D 23 41 42 BF C8 41 40 E2 F4 41 44 C5 2A 47 8B 09 80 43 53 B3 33 00 00 00 00 47 0F D1 DA 42 BD 75 1A 00 00 00 00 00 00 00 00 45 CD E5 16 45 CE 28 D6 00 CC 
10 03:47:19.495 G  TX 01 10 00 24 00 4A 01 F5 
10 03:47:19.610 G  RX 01 10 00 6E 00 46 8C 00 00 00 00 3F 6F DA DB 3F 77 10 13 3F 73 84 53 3F 70 AF FE 00 00 00 00 43 3D 86 CF 43 35 C8 5B 43 33 61 1C 43 3C E4 0B 00 00 00 00 45 CE 25 2D 45 CF AD 07 45 CE F9 95 45 CE 96 B4 44 86 CF 06 40 A1 DE 22 3D 77 66 4D 3D A3 75 32 3E 09 F5 C7 3E 1A 76 08 43 00 60 45 42 44 86 03 41 92 72 28 42 67 EA B3 3C B3 14 FE 42 1F DD 5A 3E 15 BD EB 3E 89 5F 34 45 90 B8 00 45 5B 10 00 41 95 EF 66 41 93 9D A4 00 00 00 00 00 00 00 00 CB BE 
10 03:47:19.680 G  TX 01 10 00 6E 00 46 20 26 
10 03:47:20.223 G  RX 01 03 00 00 00 10 44 06 
10 03:47:20.292 G  TX 01 03 20 00 00 00 00 40 80 00 00 C2 BA 00 00 00 00 00 00 00 00 00 00 C1 00 00 00 C3 11 00 00 00 00 00 00 4E BC 
10 03:47:20.428 G  RX 01 10 00 24 00 4A 94 00 00 00 00 00 00 00 00 44 FD 94 F7 44 FC 88 68 44 F4 75 51 44 FE 3B CC 46 90 8F E6 46 8F 13 CF 42 BE 8B 48 42 B4 65 60 46 72 00 BC 42 EE 76 DA 42 F4 30 CE 42 E8 F3 2E 42 E9 63 CE 42 F1 14 A7 41 0F 71 64 40 7E 56 8C BC 71 49 05 41 E8 00 00 42 00 00 00 00 00 00 00 3C 8B 67 92 3E 80 D3 00 41 37 9C 96 41 42 E6 7B 41 41 05 51 41 44 B1 CB 47 8B 0A 00 43 57 19 9A 00 00 00 00 47 0F D1 DA 42 BB 28 7F 00 00 00 00 00 00 00 00 45 CD EA 94 45 CE 2A AB 12 E2 
10 03:47:20.498 G  TX 01 10 00 24 00 4A 01 F5 
10 03:47:20.613 G  RX 01 10 00 6E 00 46 8C 00 00 00 00 3F 6F B7 7D 3F 76 F9 F5 3F 73 19 3D 3F 70 9A 6F 00 00 00 00 43 3D 90 93 43 35 D8 A2 43 33 9E F6 43 3C F4 52 00 00 00 00 45 CE 35 A8 45 CF AD 07 45 CE EA EE 45 CE 9E 07 44 86 71 46 40 AE 90 2F 3D AF C8 B0 3D A0 C4 63 3E 08 54 FB 3E 1A E2 30 42 FD 72 2D 42 43 F6 C8 41 95 36 80 42 67 2F 32 3C B1 50 D4 42 1F E8 C4 3D EC FB 98 3E 8B F9 E1 45 90 B8 00 45 5B 10 00 41 94 C1 4F 41 96 0E A6 00 00 00 00 00 00 00 00 70 FB 
10 03:47:20.682 G  TX 01 10 00 6E 00 46 20 26 
10 03:47:21.224 G  RX 01 03 00 00 00 10 44 06 
10 03:47:21.292 G  TX 01 03 20 00 00 00 00 40 80 00 00 C2 BE 00 00 00 00 00 00 00 00 00 00 C1 00 00 00 C3 11 00 00 00 00 00 00 7C 4F 
10 03:47:21.429 G  RX 01 10 00 24 00 4A 94 00 00 00 00 00 00 00 00 44 FD 9D 1B 44 FC 67 DB 44 F4 7D 75 44 FE 23 62 46 90 8F E6 46 8F 13 CF 42 BE 2F 23 42 B6 10 9A 46 72 02 DE 42 ED D7 BB 42 F4 1C E5 42 E8 54 31 42 EA AF 19 42 F1 8C 0D 41 0F 6C 0A 40 7E 38 8F 3C 0D 51 78 41 E8 00 00 42 00 00 00 00 00 00 00 3C 98 7A 97 3E 81 9B BD 41 37 C0 95 41 42 E9 D6 41 40 D8 FD 41 44 69 74 47 8B 0A 80 43 59 E6 66 00 00 00 00 47 0F D1 DA 42 B5 D8 F2 00 00 00 00 00 00 00 00 45 CD E5 16 45 CE 1D DA C6 78 
10 03:47:21.497 G  TX 01 10 00 24 00 4A 01 F5 
10 03:47:21.613 G  RX 01 10 00 6E 00 46 8C 00 00 00 00 3F 6F C8 3B 3F 76 C8 B4 3F 73 43 DC 3F 70 AB AF 00 00 00 00 43 3D 80 4C 43 35 D8 A2 43 33 6E 22 43 3C F7 93 00 00 00 00 45 CE 35 A8 45 CF BB AD 45 CE DF F2 45 CE 9C 32 44 86 25 1A 40 B5 66 35 3D 77 66 4D 3D A0 82 DB 3E 05 E2 1E 3E 1B 85 C2 42 FD E7 5D 42 44 6B F8 41 93 BF 7E 42 68 E4 B4 3C AF E7 BC 42 1F F3 C6 3E 06 1D DB 3E 9B 99 F1 45 90 B8 00 45 5B 10 00 41 93 54 B9 41 96 B5 51 00 00 00 00 00 00 00 00 B3 F3 
10 03:47:21.682 G  TX 01 10 00 6E 00 46 20 26 
10 03:47:22.228 G  RX 01 03 00 00 00 10 44 06 
10 03:47:22.296 G  TX 01 03 20 00 00 00 00 40 80 00 00 C2 BE 00 00 00 00 00 00 00 00 00 00 C1 00 00 00 C3 11 00 00 00 00 00 00 7C 4F 
10 03:47:22.432 G  RX 01 10 00 24 00 4A 94 00 00 00 00 00 00 00 00 44 FD 74 6A 44 FC 7C 33 44 F4 4C A1 44 FE 64 7D 46 90 8F E6 46 8F 13 CF 42 BE 3C 4D 42 B1 FB BA 46 72 05 11 42 EC E9 14 42 F4 80 71 42 E9 8B 8E 42 EB 7C 89 42 F2 0A 18 41 0D BC 98 40 3E 21 E5 3D 2F A9 15 41 E8 00 00 42 00 00 00 00 00 00 00 3C 8B 67 92 3E 80 D3 00 41 37 AD CA 41 42 CF D9 41 40 C1 2B 41 44 59 39 47 8B 0B 00 43 55 66 66 00 00 00 00 47 0F D1 DA 42 BA BF E0 00 00 00 00 00 00 00 00 45 CD DD C3 45 CE 1A 30 44 0F 
10 03:47:22.501 G  TX 01 10 00 24 00 4A 01 F5 
10 03:47:22.618 G  RX 01 10 00 6E 00 46 8C 00 00 00 00 3F 6F D8 07 3F 76 82 55 3F 73 3D F3 3F 70 BF B3 00 00 00 00 43 3D 76 88 43 36 02 F3 43 33 77 E6 43 3C E0 CA 00 00 00 00 45 CE 39 51 45 CF B2 85 45 CE EA EE 45 CE 96 B4 44 86 27 0E 40 A1 DE 22 3D 80 E8 81 3D A1 0C 8B 3E 02 CC 30 3E 1B 99 55 42 FD E0 DB 42 44 10 D3 41 91 F5 27 42 68 67 B3 3C B4 5B FC 42 20 00 51 3E 0B 53 36 3E 81 8F 2C 45 90 B8 00 45 5B 10 00 41 95 33 E5 41 97 B9 BD 00 00 00 00 00 00 00 00 CD 28 
10 03:47:22.686 G  TX 01 10 00 6E 00 46 20 26 
10 03:47:23.227 G  RX 01 03 00 00 00 10 44 06 
10 03:47:23.296 G  TX 01 03 20 00 00 00 00 40 80 00 00 C2 BE 00 00 00 00 00 00 00 00 00 00 C1 00 00 00 C3 11 00 00 00 00 00 00 7C 4F 
10 03:47:23.433 G  RX 01 10 00 24 00 4A 94 00 00 00 00 00 00 00 00 44 FD A5 3E 44 FC 5B A6 44 F4 75 51 44 FE 7C E7 46 90 8F E6 46 8F 13 CF 42 BE 49 77 42 B3 A6 CD 46 72 07 44 42 F0 82 BB 42 F4 08 FD 42 E8 D8 AE 42 EB 1F C1 42 F1 92 AF 41 11 D5 02 40 3D 80 63 3D 86 62 C4 41 E8 00 00 42 00 00 00 00 00 00 00 3C 8B 67 92 3E 81 9B BD 41 37 A8 CD 41 42 C7 40 41 40 FD ED 41 44 5B F8 47 8B 0B 80 43 56 CC CD 00 00 00 00 47 0F D1 DA 42 BC E5 33 00 00 00 00 00 00 00 00 45 CD D0 F2 45 CE 16 87 61 DB 
10 03:47:23.502 G  TX 01 10 00 24 00 4A 01 F5 
10 03:47:23.619 G  RX 01 10 00 6E 00 46 8C 00 00 00 00 3F 6F BC 7B 3F 76 FC B7 3F 73 2F FE 3F 74 28 B8 00 00 00 00 43 3D 7D 0A 43 35 D2 1F 43 33 88 2D 43 3A 21 A7 00 00 00 00 45 CE 28 D6 45 CF 9A B7 45 CE EA EE 45 CE A1 B0 44 85 E5 9F 40 A1 DE 22 3D 86 1D DB 3D A2 12 04 3E 00 A8 B0 3E 1B 81 13 42 FD B3 48 42 44 37 E3 41 93 95 D4 42 6A 46 E0 3C B4 BD 9F 42 20 02 D5 3E 20 28 A0 3E 54 3E 2A 45 90 B8 00 45 5B 10 00 41 94 10 39 41 95 3E 50 00 00 00 00 00 00 00 00 99 7D 
10 03:47:23.688 G  TX 01 10 00 6E 00 46 20 26 
10 03:47:24.226 G  RX 01 03 00 00 00 10 44 06 
10 03:47:24.294 G  TX 01 03 20 00 00 00 00 40 80 00 00 C2 BE 00 00 00 00 00 00 00 00 00 00 C1 00 00 00 C3 11 00 00 00 00 00 00 7C 4F 
10 03:47:24.431 G  RX 01 10 00 24 00 4A 94 00 00 00 00 00 00 00 00 44 FD 90 E5 44 FC 5F B7 44 F4 48 8F 44 FE 64 7D 46 90 8F E6 46 8F 13 CF 42 BE 91 DD 42 B3 D4 CC 46 72 09 78 42 EE BF C9 42 F4 3E 14 42 E9 0D AE 42 EA 9B 38 42 F1 C7 C1 41 11 D3 51 40 3D 23 BC 3D 8F 99 32 41 E8 00 00 42 00 00 00 00 00 00 00 3C 98 7A 97 3E 80 D3 00 41 37 8A 55 41 42 F9 A3 41 40 CC 9C 41 44 78 D1 47 8B 0C 00 43 54 80 00 00 00 00 00 47 0F D1 DA 42 B8 B4 E0 00 00 00 00 00 00 00 00 45 CD DD C3 45 CE 27 01 E5 CC 
10 03:47:24.499 G  TX 01 10 00 24 00 4A 01 F5 
10 03:47:24.617 G  RX 01 10 00 6E 00 46 8C 00 00 00 00 3F 74 08 41 3F 76 B1 D0 3F 73 2D AC 3F 74 EE 0A 00 00 00 00 43 3A 24 E8 43 36 0C B7 43 33 67 9F 43 39 AF B8 00 00 00 00 45 CE 52 F4 45 CF BB AD 45 CE E9 1A 45 CE AE 81 44 86 43 60 40 BE 30 3E 3D 86 1D DB 3D 9E 71 32 3D FD F5 CF 3E 19 AA E9 42 FE 14 F0 42 43 8E 9D 41 92 C5 7D 42 68 67 B3 3C AD 0D 21 42 20 02 30 3E 2A 93 55 3E 96 64 96 45 90 B8 00 45 5B 10 00 41 98 8A 13 41 94 EA FA 00 00 00 00 00 00 00 00 DB 1F 
10 03:47:24.685 G  TX 01 10 00 6E 00 46 20 26 
10 03:47:25.226 G  RX 01 03 00 00 00 10 44 06 
10 03:47:25.295 G  TX 01 03 20 00 00 00 00 40 80 00 00 C2 BE 00 00 00 00 00 00 00 00 00 00 C1 00 00 00 C3 11 00 00 00 00 00 00 7C 4F 
10 03:47:25.431 G  RX 01 10 00 24 00 4A 94 00 00 00 00 00 00 00 00 44 FD AD 61 44 FC 57 94 44 F4 38 48 44 FE 5C 5A 46 90 8F E6 46 8F 13 CF 42 BE 7E 1E 42 B3 C1 16 46 72 0B AB 42 ED E4 FD 42 F3 B2 B9 42 E9 42 AE 42 EA 52 54 42 F2 4C 6F 41 13 77 FA 40 3C 85 B0 3D 8F 99 32 41 E8 00 00 42 00 00 00 00 00 00 00 3C 8B 67 92 3E 80 D3 00 41 37 94 25 41 42 D3 08 41 40 DA 07 41 44 AF CC 47 8B 0C 80 43 54 66 66 00 00 00 00 47 0F D1 DA 42 BB 9E 33 00 00 00 00 00 00 00 00 45 CD E1 6D 45 CE 27 01 3B D9 
10 03:47:25.500 G  TX 01 10 00 24 00 4A 01 F5 
10 03:47:25.617 G  RX 01 10 00 6E 00 46 8C 00 00 00 00 3F 73 D9 55 3F 76 FE 14 3F 73 5C 87 3F 75 16 C6 00 00 00 00 43 3A 4B F9 43 35 D5 60 43 33 6A E0 43 39 A5 F4 00 00 00 00 45 CE 3E CF 45 CF 9C 8C 45 CE DF F2 45 CE AA D8 44 86 A9 EA 40 B7 5A 37 3D 86 1D DB 3D 9C 9D E1 3D F9 02 C5 3E 19 84 5A 42 FD 44 9A 42 43 81 98 41 97 54 2D 42 6A 32 0A 3C AB 66 B6 42 1F FB A0 3D CD BB 78 3E 89 5F 34 45 90 B8 00 45 5B 10 00 41 95 1F 10 41 94 78 64 00 00 00 00 00 00 00 00 C5 0E 
10 03:47:25.687 G  TX 01 10 00 6E 00 46 20 26 
10 03:47:26.226 G  RX 01 03 00 00 00 10 44 06 
10 03:47:26.295 G  TX 01 03 20 00 00 00 00 40 80 00 00 C2 BE 00 00 00 00 00 00 00 00 00 00 C1 00 00 00 C3 11 00 00 00 00 00 00 7C 4F 
10 03:47:26.433 G  RX 01 10 00 24 00 4A 94 00 00 00 00 00 00 00 00 44 FD 84 B0 44 FC 47 4D 44 F4 34 36 44 FE 60 6B 46 90 8F E6 46 8F 13 CF 42 BE B9 5C 42 B1 02 1B 46 72 0D DE 42 EF 51 AB 42 F4 51 FC 42 E8 CB 6F 42 EA C2 FA 42 F1 EF 8E 41 10 FC B9 3F F8 95 B0 3D 8F 94 03 41 E8 00 00 42 00 00 00 00 00 00 00 3C 8B 67 92 3E 80 D3 00 41 37 87 81 41 42 C0 3F 41 41 01 C3 41 44 F3 22 47 8B 0D 00 43 54 66 66 00 00 00 00 47 0F D1 DA 42 BD 5A EF 00 00 00 00 00 00 00 00 45 CD D8 45 45 CE 30 29 0F EC 
10 03:47:26.501 G  TX 01 10 00 24 00 4A 01 F5 
10 03:47:26.618 G  RX 01 10 00 6E 00 46 8C 00 00 00 00 3F 70 48 E8 3F 76 A9 E8 3F 73 69 62 3F 75 1B 38 00 00 00 00 43 3D 35 6D 43 35 EC 2A 43 33 40 8F 43 39 92 6C 00 00 00 00 45 CE 2C 80 45 CF AB 32 45 CE DF F2 45 CE A9 03 44 86 59 D6 40 9E F0 1F 3D DE A8 DF 3D 9E 13 F3 3D F7 65 D2 3E 19 8B FA 42 FC CF 69 42 44 03 CD 41 94 66 2A 42 69 23 34 3C B4 7B 1A 42 1F EB 6E 3D CD BB 78 3E 5E A8 DF 45 90 B8 00 45 5B 10 00 41 95 E4 FB 41 93 5F 23 00 00 00 00 00 00 00 00 D6 A1 
10 03:47:26.687 G  TX 01 10 00 6E 00 46 20 26 
10 03:47:27.227 G  RX 01 03 00 00 00 10 44 06 
10 03:47:27.297 G  TX 01 03 20 00 00 00 00 40 80 00 00 C2 BE 00 00 00 00 00 00 00 00 00 00 C1 00 00 00 C3 11 00 00 00 00 00 00 7C 4F 
10 03:47:27.433 G  RX 01 10 00 24 00 4A 94 00 00 00 00 00 00 00 00 44 FD 7C 8D 44 FC 3B 18 44 F4 71 40 44 FE 02 D5 46 90 8F E6 46 8F 13 CF 42 BE B2 C6 42 B3 8C 84 46 72 10 11 42 F0 E6 39 42 F4 3E 14 42 E8 E5 EE 42 EA F7 FE 42 F1 E8 EC 41 10 F5 D4 3F 6C A8 75 3D 89 17 F3 41 E8 00 00 42 00 00 00 00 00 00 00 3C 8B 67 92 3E 80 D3 00 41 37 8E C7 41 42 ED 73 41 41 10 9F 41 44 D7 95 47 8B 0D 80 43 50 E6 66 00 00 00 00 47 0F D1 DA 42 BE E9 FD 00 00 00 00 00 00 00 00 45 CD DD C3 45 CE 28 D6 52 C5 
10 03:47:27.501 G  TX 01 10 00 24 00 4A 01 F5 
10 03:47:27.618 G  RX 01 10 00 6E 00 46 8C 00 00 00 00 3F 6F CF B7 3F 77 13 4F 3F 73 2A BE 3F 74 FB B7 00 00 00 00 43 3D 73 46 43 35 CB 9C 43 33 64 5E 43 39 A2 B3 00 00 00 00 45 CE 30 29 45 CF 9C 8C 45 CE DE 1D 45 CE AA D8 44 86 7C 04 40 A3 D2 24 3D 95 BD EB 3D 9F 2A 0A 3D F9 5C 37 3E 19 E9 46 42 FD 17 07 42 43 5A 87 41 95 0C D5 42 68 BB 09 3C B8 2A 83 42 1F F0 88 3E 00 E8 81 3E 89 5F 34 45 90 B8 00 45 5B 10 00 41 95 72 65 41 95 91 A6 00 00 00 00 00 00 00 00 73 95 
10 03:47:27.686 G  TX 01 10 00 6E 00 46 20 26 
10 03:47:28.222 G  RX 01 03 00 00 00 10 44 06 
10 03:47:28.290 G  TX 01 03 20 00 00 00 00 40 80 00 00 C2 BE 00 00 00 00 00 00 00 00 00 00 C1 00 00 00 C3 11 00 00 00 00 00 00 7C 4F 
10 03:47:28.426 G  RX 01 10 00 24 00 4A 94 00 00 00 00 00 00 00 00 44 FD 94 F7 44 FC C1 60 44 F4 1F DE 44 FE 6C A0 46 90 8F E6 46 8F 13 CF 42 BE 3C 4D 42 B3 C1 16 46 72 12 44 42 F0 D8 F5 42 F3 B9 5C 42 E9 14 4E 42 E9 C0 8F 42 F2 9C 0C 41 11 C6 C4 3F 69 E1 5F 3D AB E4 98 41 E8 00 00 42 00 00 00 00 00 00 00 3C 98 7A 97 3E 80 D3 00 41 37 C0 F3 41 42 EC 2D 41 40 BA D2 41 44 7D 2C 47 8B 0E 00 43 51 99 9A 00 00 00 00 47 0F D1 DA 42 BD 5A EF 00 00 00 00 00 00 00 00 45 CE 16 87 45 CE 23 58 C3 FD 
10 03:47:28.494 G  TX 01 10 00 24 00 4A 01 F5 
10 03:47:28.611 G  RX 01 10 00 6E 00 46 8C 00 00 00 00 3F 6F FE 4C 3F 7A A4 4B 3F 72 EF BD 3F 75 5E 9E 00 00 00 00 43 3D 59 3C 43 33 23 43 43 33 88 2D 43 39 75 20 00 00 00 00 45 CE 1D DA 45 CF A7 88 45 CE E3 9B 45 CE 8D 8C 44 86 87 BC 40 B6 60 36 3D A0 28 A0 3D A0 B1 F5 3D FD B1 FA 3E 1C 21 14 42 FD 4B 1D 42 43 67 8D 41 94 E3 2A 42 68 7C 88 3C C0 B1 F1 42 20 04 89 3E 0B 53 36 3E 93 C9 E9 45 90 B8 00 45 5B 10 00 41 96 96 11 41 93 4A 4E 00 00 00 00 00 00 00 00 2C 77 
10 03:47:28.680 G  TX 01 10 00 6E 00 46 20 26 
10 03:47:29.220 G  RX 01 03 00 00 00 10 44 06 
10 03:47:29.289 G  TX 01 03 20 00 00 00 00 40 80 00 00 C2 BE 00 00 00 00 00 00 00 00 00 00 C1 00 00 00 C3 11 00 00 00 00 00 00 7C 4F 
10 03:47:29.426 G  RX 01 10 00 24 00 4A 94 00 00 00 00 00 00 00 00 44 FD BD A8 44 FB E9 B6 44 F4 34 36 44 FE 54 36 46 90 8F E6 46 8F 13 CF 42 BE 35 B8 42 B7 03 D8 46 72 14 77 42 EE 4F 12 42 F4 BC 2C 42 E8 8F D0 42 EA 52 54 42 F1 71 84 41 14 40 52 3F 66 E5 75 3D D0 9C D3 41 E8 00 00 42 00 00 00 00 00 00 00 3C 8B 67 92 3E 80 D3 00 41 37 B5 2C 41 42 DA 5A 41 40 DD 02 41 44 3B 33 47 8B 0E 80 43 52 19 9A 00 00 00 00 47 0F D1 DA 42 BB B1 D1 00 00 00 00 00 00 00 00 45 CD F3 BC 45 CE 27 01 DE 0D 
10 03:47:29.494 G  TX 01 10 00 24 00 4A 01 F5 
10 03:47:29.610 G  RX 01 10 00 6E 00 46 8C 00 00 00 00 3F 6F BD DE 3F 7A AE 11 3F 73 65 9E 3F 74 BB 01 00 00 00 00 43 3D 86 CF 43 33 26 84 43 33 64 5E 43 39 95 AD 00 00 00 00 45 CE 37 7C 45 CF A5 B4 45 CE DC 48 45 CE A7 2E 44 86 F0 3A 40 B7 5A 37 3D 4D BB 78 3D A3 77 4E 3D FF A6 20 3E 1B C8 B4 42 FD 72 2D 42 43 F6 C8 41 95 89 D6 42 68 91 5E 3C C1 CF 90 42 20 0B 18 3D A4 10 A4 3E A8 9F 53 45 90 B8 00 45 5B 10 00 41 93 4A 4E 41 93 4A 4E 00 00 00 00 00 00 00 00 22 6B 
10 03:47:29.680 G  TX 01 10 00 6E 00 46 20 26 
10 03:47:30.218 G  RX 01 03 00 00 00 10 44 06 
10 03:47:30.286 G  TX 01 03 20 00 00 00 00 40 80 00 00 C2 BE 00 00 00 00 00 00 00 00 00 00 C1 00 00 00 C3 11 00 00 00 00 00 00 7C 4F 
10 03:47:30.423 G  RX 01 10 00 24 00 4A 94 00 00 00 00 00 00 00 00 44 FD 84 B0 44 F8 F0 CC 44 F4 99 F1 44 FE 27 74 46 90 8F E6 46 8F 13 CF 42 BE 77 89 42 B1 EE 97 46 72 16 AB 42 F0 9D 43 42 F4 3E 14 42 E8 33 13 42 EA 45 14 42 F1 DB A8 41 16 BE 18 3F F1 DF DD 3D D0 87 AC 41 E8 00 00 42 00 00 00 00 00 00 00 3C 8B 67 92 3E 68 8E 70 41 37 97 DF 41 42 D4 20 41 41 04 4D 41 44 3C D5 47 8B 0F 00 43 54 19 9A 00 00 00 00 47 0F D1 DA 42 BD 61 7A 00 00 00 00 00 00 00 00 45 CD FC E4 45 CE 35 A8 A9 1F 
10 03:47:30.493 G  TX 01 10 00 24 00 4A 01 F5 
10 03:47:30.609 G  RX 01 10 00 6E 00 46 8C 00 00 00 00 3F 6F C7 5D 3F 78 42 81 3F 72 EF 2B 3F 75 45 A4 00 00 00 00 43 3D 9A 57 43 33 47 12 43 33 7E 68 43 39 85 67 00 00 00 00 45 CE 3B 26 45 CF C1 2B 45 CE DE 1D 45 CE 9A 5D 44 86 AD D2 40 97 20 17 3D 9A F3 46 3D A4 B6 77 3D FE BA B7 3E 1A 2B 1F 42 FD B9 CA 42 43 8E 9D 41 91 F5 27 42 67 58 DD 3C CC BE 51 42 20 0D FA 3E 3F 68 BF 3E 78 B3 A3 45 90 B8 00 45 5B 10 00 41 96 04 3B 41 97 ED D3 00 00 00 00 00 00 00 00 84 E7 
10 03:47:30.677 G  TX 01 10 00 6E 00 46 20 26 
10 03:47:31.219 G  RX 01 03 00 00 00 10 44 06 
10 03:47:31.287 G  TX 01 03 20 00 00 00 00 40 80 00 00 C2 BE 00 00 00 00 00 00 00 00 00 00 C1 00 00 00 C3 11 00 00 00 00 00 00 7C 4F 
10 03:47:31.423 G  RX 01 10 00 24 00 4A 94 00 00 00 00 00 00 00 00 44 FD 80 9F 44 F8 DC 73 44 F4 9E 02 44 FE 54 36 46 90 8F E6 46 8F 13 CF 42 BE 70 F4 42 B4 E2 3F 46 72 18 DE 42 EF 9A 9D 42 F4 87 14 42 E9 3C 0E 42 E8 54 31 42 F1 43 16 41 18 63 F2 40 37 FE 8A 3D C2 04 AF 41 E8 00 00 42 00 00 00 00 00 00 00 3C 8B 67 92 3E 60 B7 12 41 37 A3 13 41 42 F6 A7 41 40 CD F6 41 44 37 45 47 8B 0F 80 43 52 4C CD 00 00 00 00 47 0F D1 DA 42 B5 63 58 00 00 00 00 00 00 00 00 45 CD D0 F2 45 CE 12 DD E8 70 
10 03:47:31.491 G  TX 01 10 00 24 00 4A 01 F5 
10 03:47:31.609 G  RX 01 10 00 6E 00 46 8C 00 00 00 00 3F 6F BD 3F 3F 77 2B 62 3F 72 FB CA 3F 75 29 DA 00 00 00 00 43 3D 83 8D 43 33 23 43 43 33 61 1C 43 39 8B E9 00 00 00 00 45 CE 2E 54 45 CF A3 DF 45 CF 06 66 45 CE 96 B4 44 87 8B 81 40 A1 DE 22 3D AA 93 55 3D A3 6C 6E 3E 00 C2 E5 3E 1B 54 21 42 FC C8 E7 42 45 22 44 41 95 B3 80 42 69 23 34 3C CF 01 98 42 20 0A 24 3E 2A 93 55 3E 84 29 D9 45 90 B8 00 45 5B 10 00 41 91 BE 77 41 94 97 A5 00 00 00 00 00 00 00 00 B3 AE 
10 03:47:31.678 G  TX 01 10 00 6E 00 46 20 26 
10 03:47:32.216 G  RX 01 03 00 00 00 10 44 06 
10 03:47:32.284 G  TX 01 03 20 00 00 00 00 40 80 00 00 C2 BE 00 00 00 00 00 00 00 00 00 00 C1 00 00 00 C3 11 00 00 00 00 00 00 7C 4F 
10 03:47:32.422 G  RX 01 10 00 24 00 4A 94 00 00 00 00 00 00 00 00 44 FD 9D 1B 44 F8 E8 A8 44 F4 60 F9 44 FE 2B 85 46 90 8F E6 46 8F 13 CF 42 BE 49 77 42 B5 3E 43 46 72 1B 11 42 ED DE 5C 42 F3 E7 CF 42 E8 EC 8E 42 EB D2 B1 42 F1 07 63 41 18 62 BC 40 36 EC 4A 3D EC D5 87 41 E8 00 00 42 00 00 00 00 00 00 00 3C 8B 67 92 3E E5 31 47 41 37 A0 BB 41 42 B2 11 41 40 C8 3C 41 44 8A 13 47 8B 10 00 43 51 19 9A 00 00 00 00 47 0F D1 DA 42 BA 6A E0 00 00 00 00 00 00 00 00 45 CD EC 69 45 CE 39 51 B3 80 
10 03:47:32.490 G  TX 01 10 00 24 00 4A 01 F5 
