16 10:54:16.226 G  TX 01 04 03 E8 00 08 71 BC 
16 10:54:16.273 G  RX 01 04 10 27 D8 03 15 30 39 09 29 00 00 00 00 00 00 00 00 55 68 
16 10:54:16.346 G  TX 01 03 03 E8 00 08 C4 7C 
16 10:54:16.409 G  RX 01 03 10 27 D8 03 15 30 39 09 29 00 00 00 00 00 00 00 00 E4 1D 
16 10:54:16.483 G  TX 01 03 00 00 00 64 44 21 
16 10:54:16.715 G  RX 01 03 C8 60 00 46 1F CC CD 42 9D 50 00 44 9A 80 00 43 6A 07 00 47 50 00 00 4C 00 00 00 00 00 00 00 00 00 00 00 00 00 00 00 00 00 00 00 00 00 00 00 00 00 20 00 44 E1 80 00 43 C7 00 00 44 A6 20 00 44 D9 80 00 44 1F 00 00 44 22 C0 00 44 61 40 00 44 13 00 00 43 A9 00 00 00 00 00 00 00 00 00 00 00 00 00 00 00 00 00 00 00 00 00 00 00 00 00 00 00 00 00 00 00 00 00 00 00 00 00 00 00 00 00 00 00 00 00 00 3F 80 00 00 3F 80 00 00 3F 80 00 00 3F 80 00 00 00 00 00 00 00 00 00 00 00 00 00 00 00 00 00 00 00 00 00 00 00 00 00 00 00 00 00 00 00 00 00 00 00 00 00 00 00 00 00 00 00 00 00 00 00 00 00 00 00 00 00 00 00 00 E1 1B 
16 10:54:17.788 G  TX 01 04 03 E8 00 08 71 BC 
16 10:54:17.839 G  RX 01 04 10 27 D8 03 15 30 39 09 29 00 00 00 00 00 00 00 00 55 68 
16 10:54:17.912 G  TX 01 03 03 E8 00 08 C4 7C 
16 10:54:17.964 G  RX 01 03 10 27 D8 03 15 30 39 09 29 00 00 00 00 00 00 00 00 E4 1D 
16 10:54:18.040 G  TX 01 03 00 00 00 64 44 21 
16 10:54:18.477 G  RX 01 03 C8 60 00 46 1F CC CD 42 9D 50 00 44 9A 80 00 43 6A 07 00 47 50 00 00 4C 00 00 00 00 00 00 00 00 00 00 00 00 00 00 00 00 00 00 00 00 00 00 00 00 00 00 00 44 E1 80 00 43 C6 A0 00 44 A3 C0 00 44 D6 40 00 44 1C 80 00 44 1F 40 00 44 60 C0 00 44 12 00 00 43 A9 00 00 00 00 00 00 00 00 00 00 00 00 00 00 00 00 00 00 00 00 00 00 00 00 00 00 00 00 00 00 00 00 00 00 00 00 00 00 00 00 00 00 00 00 00 00 3F 80 00 00 3F 80 00 00 3F 80 00 00 3F 80 00 00 00 00 00 00 00 00 00 00 00 00 00 00 00 00 00 00 00 00 00 00 00 00 00 00 00 00 00 00 00 00 00 00 00 00 00 00 00 00 00 00 00 00 00 00 00 00 00 00 00 00 00 00 00 00 54 9A 
16 10:54:19.551 G  TX 01 04 03 E8 00 08 71 BC 
16 10:54:19.601 G  RX 01 04 10 27 D8 03 15 30 39 09 29 00 00 00 00 00 00 00 00 55 68 
16 10:54:19.677 G  TX 01 03 03 E8 00 08 C4 7C 
16 10:54:19.726 G  RX 01 03 10 27 D8 03 15 30 39 09 29 00 00 00 00 00 00 00 00 E4 1D 
16 10:54:19.802 G  TX 01 03 00 00 00 64 44 21 
16 10:54:20.047 G  RX 01 03 C8 60 00 46 1F CC CD 42 9D 50 00 44 9A 80 00 43 6A 0F 00 47 50 00 00 4C 00 00 00 00 00 00 00 00 00 00 00 00 00 00 00 00 00 00 00 00 00 00 00 00 00 20 00 44 E2 00 00 43 D1 A0 00 44 A6 60 00 44 DC 80 00 44 20 00 00 44 24 40 00 44 64 40 00 44 16 00 00 43 A9 00 00 00 00 00 00 00 00 00 00 00 00 00 00 00 00 00 00 00 00 00 00 00 00 00 00 00 00 00 00 00 00 00 00 00 00 00 00 00 00 00 00 00 00 00 00 3F 80 00 00 3F 80 00 00 3F 80 00 00 3F 80 00 00 00 00 00 00 00 00 00 00 00 00 00 00 00 00 00 00 00 00 00 00 00 00 00 00 00 00 00 00 00 00 00 00 00 00 00 00 00 00 00 00 00 00 00 00 00 00 00 00 00 00 00 00 00 00 0F 31 
16 10:55:03.899 G  TX 01 03 03 E8 00 12 45 B7 
16 10:55:03.936 G  RX 01 83 02 C0 F1 
16 10:55:05.009 G  TX 01 03 03 E8 00 12 45 B7 
16 10:55:05.042 G  RX 01 83 02 C0 F1 
16 10:55:05.115 G  TX 01 03 00 00 00 64 44 21 
16 10:55:05.344 G  RX 01 03 C8 60 00 46 1F CC CD 42 9D 50 00 44 9A 80 00 43 6A 8F 00 47 50 00 00 4C 00 00 00 00 00 00 00 00 00 00 00 00 00 00 00 00 00 00 00 00 00 00 00 00 00 C0 00 44 E0 00 00 43 C7 00 00 44 A4 40 00 44 D7 C0 00 44 1C 80 00 44 1F C0 00 44 5F C0 00 44 11 00 00 43 A9 00 00 00 00 00 00 00 00 00 00 00 00 00 00 00 00 00 00 00 00 00 00 00 00 00 00 00 00 00 00 00 00 00 00 00 00 00 00 00 00 00 00 00 00 00 00 3F 80 00 00 3F 80 00 00 3F 80 00 00 3F 80 00 00 00 00 00 00 00 00 00 00 00 00 00 00 00 00 00 00 00 00 00 00 00 00 00 00 00 00 00 00 00 00 00 00 00 00 00 00 00 00 00 00 00 00 00 00 00 00 00 00 00 00 00 00 00 00 98 8B 
16 10:55:06.418 G  TX 01 04 03 E8 00 08 71 BC 
16 10:55:06.468 G  RX 01 04 10 27 D8 03 15 30 39 09 29 00 00 00 00 00 00 00 00 55 68 
16 10:55:06.542 G  TX 01 03 03 E8 00 12 45 B7 
16 10:55:06.775 G  RX 01 83 02 C0 F1 
16 10:55:07.851 G  TX 01 03 03 E8 00 12 45 B7 
16 10:55:07.929 G  RX 01 83 02 C0 F1 
16 10:56:13.345 G  TX 01 04 03 E8 00 12 F0 77 
16 10:56:13.376 G  RX 01 84 02 C2 C1 
16 10:56:14.450 G  TX 01 04 03 E8 00 12 F0 77 
16 10:56:14.469 G  RX 01 84 02 C2 C1 
16 10:56:15.543 G  TX 01 04 03 E8 00 12 F0 77 
16 10:56:15.563 G  RX 01 84 02 C2 C1 
16 10:56:15.636 G  TX 01 03 03 E8 00 12 45 B7 
16 10:56:15.657 G  RX 01 83 02 C0 F1 
16 10:56:16.730 G  TX 01 03 03 E8 00 12 45 B7 
16 10:56:16.751 G  RX 01 83 02 C0 F1 
16 10:56:17.824 G  TX 01 03 03 E8 00 12 45 B7 
16 10:56:17.844 G  RX 01 83 02 C0 F1 
16 10:56:17.917 G  TX 01 03 00 00 00 64 44 21 
16 10:56:18.147 G  RX 01 03 C8 60 00 46 1F CC CD 42 9D 50 00 44 9A 80 00 43 6A 5D 00 47 51 00 00 4C 00 00 00 00 00 00 00 00 00 00 00 00 00 00 00 00 00 00 00 00 00 00 00 00 00 A0 00 44 E3 00 00 43 D1 A0 00 44 A6 80 00 44 D9 C0 00 44 20 80 00 44 24 40 00 44 65 00 00 44 19 00 00 43 A9 00 00 00 00 00 00 00 00 00 00 00 00 00 00 00 00 00 00 00 00 00 00 00 00 00 00 00 00 00 00 00 00 00 00 00 00 00 00 00 00 00 00 00 00 00 00 3F 80 00 00 3F 80 00 00 3F 80 00 00 3F 80 00 00 00 00 00 00 00 00 00 00 00 00 00 00 00 00 00 00 00 00 00 00 00 00 00 00 00 00 00 00 00 00 00 00 00 00 00 00 00 00 00 00 00 00 00 00 00 00 00 00 00 00 00 00 00 00 52 57 
16 10:56:19.220 G  TX 01 04 03 E8 00 12 F0 77 
16 10:56:19.254 G  RX 01 84 02 C2 C1 
16 10:56:20.331 G  TX 01 04 03 E8 00 12 F0 77 
16 10:56:20.363 G  RX 01 84 02 C2 C1 
16 10:56:21.438 G  TX 01 04 03 E8 00 12 F0 77 
16 10:56:21.473 G  RX 01 84 02 C2 C1 
16 10:56:21.546 G  TX 01 03 03 E8 00 12 45 B7 
16 10:56:21.582 G  RX 01 83 02 C0 F1 
16 10:56:22.655 G  TX 01 03 03 E8 00 12 45 B7 
16 10:56:22.692 G  RX 01 83 02 C0 F1 
16 10:58:43.586 G  TX 01 04 03 E8 00 08 71 BC 
16 10:58:43.685 G  RX 01 04 10 27 D8 03 15 30 39 09 29 00 00 00 00 00 00 00 00 55 68 
16 10:58:43.761 G  TX 01 03 03 E8 00 08 C4 7C 
16 10:58:43.838 G  RX 01 03 10 27 D8 03 15 30 39 09 29 00 00 00 00 00 00 00 00 E4 1D 
16 10:58:43.911 G  TX 01 03 00 00 00 7C 44 2B 
16 10:58:44.193 G  RX 01 03 F8 60 00 46 1F CC CD 42 9D 50 00 44 9A 80 00 43 6A F8 00 47 52 00 00 4C 00 00 00 00 00 00 00 00 00 00 00 00 00 00 00 00 00 00 00 00 00 00 00 00 00 E0 00 44 E0 80 00 43 C7 C0 00 44 A3 C0 00 44 D8 C0 00 44 1E 40 00 44 21 00 00 44 61 C0 00 44 12 00 00 43 A9 00 00 00 00 00 00 00 00 00 00 00 00 00 00 00 00 00 00 00 00 00 00 00 00 00 00 00 00 00 00 00 00 00 00 00 00 00 00 00 00 00 00 00 00 00 00 3F 80 00 00 3F 80 00 00 3F 80 00 00 3F 80 00 00 00 00 00 00 00 00 00 00 00 00 00 00 00 00 00 00 00 00 00 00 00 00 00 00 00 00 00 00 00 00 00 00 00 00 00 00 00 00 00 00 00 00 00 00 00 00 00 00 00 00 00 00 00 00 00 00 00 00 00 00 00 00 00 00 00 00 00 00 00 00 00 00 00 00 00 00 00 00 00 00 00 00 00 00 00 00 00 00 00 00 00 00 00 00 00 00 00 00 00 00 00 00 79 81 
16 10:58:44.266 G  TX 01 03 00 7C 00 4C 85 E7 
16 10:58:44.297 G  RX 01 83 02 C0 F1 
16 10:58:45.370 G  TX 01 03 00 7C 00 4C 85 E7 
16 10:58:45.406 G  RX 01 83 02 C0 F1 
16 10:58:46.480 G  TX 01 03 00 7C 00 4C 85 E7 
16 10:58:46.516 G  RX 01 83 02 C0 F1 
16 10:58:47.591 G  TX 01 04 03 E8 00 08 71 BC 
16 10:58:47.644 G  RX 01 04 10 27 D8 03 15 30 39 09 29 00 00 00 00 00 00 00 00 55 68 
16 10:58:47.718 G  TX 01 03 03 E8 00 08 C4 7C 
16 10:58:47.768 G  RX 01 03 10 27 D8 03 15 30 39 09 29 00 00 00 00 00 00 00 00 E4 1D 
16 10:58:47.841 G  TX 01 03 00 00 00 7C 44 2B 
16 10:58:48.305 G  RX 01 03 F8 60 00 46 1F CC CD 42 9D 50 00 44 9A 80 00 43 6A 01 00 47 53 00 00 4C 00 00 00 00 00 00 00 00 00 00 00 00 00 00 00 00 00 00 00 00 00 00 00 00 00 20 00 44 E2 80 00 43 D0 60 00 44 A6 80 00 44 D9 C0 00 44 20 40 00 44 24 40 00 44 64 40 00 44 16 00 00 43 A9 00 00 00 00 00 00 00 00 00 00 00 00 00 00 00 00 00 00 00 00 00 00 00 00 00 00 00 00 00 00 00 00 00 00 00 00 00 00 00 00 00 00 00 00 00 00 3F 80 00 00 3F 80 00 00 3F 80 00 00 3F 80 00 00 00 00 00 00 00 00 00 00 00 00 00 00 00 00 00 00 00 00 00 00 00 00 00 00 00 00 00 00 00 00 00 00 00 00 00 00 00 00 00 00 00 00 00 00 00 00 00 00 00 00 00 00 00 00 00 00 00 00 00 00 00 00 00 00 00 00 00 00 00 00 00 00 00 00 00 00 00 00 00 00 00 00 00 00 00 00 00 00 00 00 00 00 00 00 00 00 00 00 00 00 00 00 C3 EA 
16 10:58:48.379 G  TX 01 03 00 7C 00 4C 85 E7 
16 10:58:48.405 G  RX 01 83 02 C0 F1 
16 10:58:49.480 G  TX 01 03 00 7C 00 4C 85 E7 
16 10:58:49.513 G  RX 01 83 02 C0 F1 
16 10:58:50.590 G  TX 01 03 00 7C 00 4C 85 E7 
16 10:58:50.607 G  RX 01 83 02 C0 F1 
16 10:58:51.681 G  TX 01 04 03 E8 00 08 71 BC 
16 10:58:51.718 G  RX 01 04 10 27 D8 03 15 30 39 09 29 00 00 00 00 00 00 00 00 55 68 
16 10:58:51.791 G  TX 01 03 03 E8 00 08 C4 7C 
16 10:58:51.843 G  RX 01 03 10 27 D8 03 15 30 39 09 29 00 00 00 00 00 00 00 00 E4 1D 
16 10:58:51.916 G  TX 01 03 00 00 00 7C 44 2B 
16 10:58:52.209 G  RX 01 03 F8 60 00 46 1F CC CD 42 9D 50 00 44 9A 80 00 43 6A 12 00 47 53 00 00 4C 00 00 00 00 00 00 00 00 00 00 00 00 00 00 00 00 00 00 00 00 00 00 00 00 00 00 00 44 E1 80 00 43 C7 E0 00 44 A3 E0 00 44 D6 40 00 44 1C 40 00 44 1F 00 00 44 60 00 00 44 13 00 00 43 A9 00 00 00 00 00 00 00 00 00 00 00 00 00 00 00 00 00 00 00 00 00 00 00 00 00 00 00 00 00 00 00 00 00 00 00 00 00 00 00 00 00 00 00 00 00 00 3F 80 00 00 3F 80 00 00 3F 80 00 00 3F 80 00 00 00 00 00 00 00 00 00 00 00 00 00 00 00 00 00 00 00 00 00 00 00 00 00 00 00 00 00 00 00 00 00 00 00 00 00 00 00 00 00 00 00 00 00 00 00 00 00 00 00 00 00 00 00 00 00 00 00 00 00 00 00 00 00 00 00 00 00 00 00 00 00 00 00 00 00 00 00 00 00 00 00 00 00 00 00 00 00 00 00 00 00 00 00 00 00 00 00 00 00 00 00 00 07 99 
16 10:58:52.285 G  TX 01 03 00 7C 00 4C 85 E7 
16 10:58:52.505 G  RX 01 83 02 C0 F1 
16 10:58:53.578 G  TX 01 03 00 7C 00 4C 85 E7 
16 10:58:53.686 G  RX 01 83 02 C0 F1 
